UVM_INFO axi_responder.sv(37) @ 0: uvm_test_top.env.s_agent.responder [axi_responder] Run Phase on Responder tx
UVM_INFO axi_drv.sv(47) @ 0: uvm_test_top.env.m_agent.drv [axi_drv] Driving tx
UVM_INFO axi_responder.sv(57) @ 5: uvm_test_top.env.s_agent.responder [AWSIZE_DEBUG] Captured awsize = 2, tx.burst_size = 2, vif.bursts_size = 2 from interface
UVM_INFO axi_tx.sv(90) @ 5: reporter@@wr_tx [AXI_TX WRAP CALC]  addr = d1f43acc
UVM_INFO axi_tx.sv(91) @ 5: reporter@@wr_tx [AXI_TX WRAP CALC]  wrap_lower_addr = d1f43ac0 
UVM_INFO axi_tx.sv(92) @ 5: reporter@@wr_tx [AXI_TX WRAP CALC]  wrap_upper_addr = d1f43adf 
UVM_INFO axi_drv.sv(111) @ 25: uvm_test_top.env.m_agent.drv [DRV_DATA] ................... data_ref = 0d52c41900000000, wstrb_t = 11110000, strb_pos=4, addr = d1f43acc 
UVM_INFO axi_responder.sv(77) @ 25: uvm_test_top.env.s_agent.responder [axi_responder] DATA at responder awsize = 2, addr = d1f43acc, data = 0d52c41900000000, strb = 11110000
UVM_INFO axi_responder.sv(88) @ 25: uvm_test_top.env.s_agent.responder [axi_responder] Writing at addr = d1f43acc, data = 0d52c41900000000, strb = 11110000
UVM_INFO axi_drv.sv(111) @ 35: uvm_test_top.env.m_agent.drv [DRV_DATA] ................... data_ref = 0000000035d4b1d8, wstrb_t = 00001111, strb_pos=0, addr = d1f43ad0 
UVM_INFO axi_responder.sv(77) @ 35: uvm_test_top.env.s_agent.responder [axi_responder] DATA at responder awsize = 2, addr = d1f43ad0, data = 0000000035d4b1d8, strb = 00001111
UVM_INFO axi_responder.sv(88) @ 35: uvm_test_top.env.s_agent.responder [axi_responder] Writing at addr = d1f43ad0, data = 0000000035d4b1d8, strb = 00001111
UVM_INFO axi_drv.sv(111) @ 45: uvm_test_top.env.m_agent.drv [DRV_DATA] ................... data_ref = 449efd9300000000, wstrb_t = 11110000, strb_pos=4, addr = d1f43ad4 
UVM_INFO axi_responder.sv(77) @ 45: uvm_test_top.env.s_agent.responder [axi_responder] DATA at responder awsize = 2, addr = d1f43ad4, data = 449efd9300000000, strb = 11110000
UVM_INFO axi_responder.sv(88) @ 45: uvm_test_top.env.s_agent.responder [axi_responder] Writing at addr = d1f43ad4, data = 449efd9300000000, strb = 11110000
UVM_INFO axi_drv.sv(111) @ 55: uvm_test_top.env.m_agent.drv [DRV_DATA] ................... data_ref = 00000000c4587109, wstrb_t = 00001111, strb_pos=0, addr = d1f43ad8 
UVM_INFO axi_responder.sv(77) @ 55: uvm_test_top.env.s_agent.responder [axi_responder] DATA at responder awsize = 2, addr = d1f43ad8, data = 00000000c4587109, strb = 00001111
UVM_INFO axi_responder.sv(88) @ 55: uvm_test_top.env.s_agent.responder [axi_responder] Writing at addr = d1f43ad8, data = 00000000c4587109, strb = 00001111
UVM_INFO axi_drv.sv(111) @ 65: uvm_test_top.env.m_agent.drv [DRV_DATA] ................... data_ref = 172bf92400000000, wstrb_t = 11110000, strb_pos=4, addr = d1f43adc 
UVM_INFO axi_responder.sv(77) @ 65: uvm_test_top.env.s_agent.responder [axi_responder] DATA at responder awsize = 2, addr = d1f43adc, data = 172bf92400000000, strb = 11110000
UVM_INFO axi_responder.sv(88) @ 65: uvm_test_top.env.s_agent.responder [axi_responder] Writing at addr = d1f43adc, data = 172bf92400000000, strb = 11110000
UVM_INFO axi_drv.sv(111) @ 75: uvm_test_top.env.m_agent.drv [DRV_DATA] ................... data_ref = 00000000e29b475c, wstrb_t = 00001111, strb_pos=0, addr = d1f43ae0 
UVM_INFO axi_responder.sv(77) @ 75: uvm_test_top.env.s_agent.responder [axi_responder] DATA at responder awsize = 2, addr = d1f43ac0, data = 00000000e29b475c, strb = 00001111
UVM_INFO axi_responder.sv(88) @ 75: uvm_test_top.env.s_agent.responder [axi_responder] Writing at addr = d1f43ac0, data = 00000000e29b475c, strb = 00001111
UVM_INFO axi_drv.sv(111) @ 85: uvm_test_top.env.m_agent.drv [DRV_DATA] ................... data_ref = 82f0005a00000000, wstrb_t = 11110000, strb_pos=4, addr = d1f43ae4 
UVM_INFO axi_responder.sv(77) @ 85: uvm_test_top.env.s_agent.responder [axi_responder] DATA at responder awsize = 2, addr = d1f43ac4, data = 82f0005a00000000, strb = 11110000
UVM_INFO axi_responder.sv(88) @ 85: uvm_test_top.env.s_agent.responder [axi_responder] Writing at addr = d1f43ac4, data = 82f0005a00000000, strb = 11110000
UVM_INFO axi_drv.sv(111) @ 95: uvm_test_top.env.m_agent.drv [DRV_DATA] ................... data_ref = 00000000cac985a8, wstrb_t = 00001111, strb_pos=0, addr = d1f43ae8 
UVM_INFO axi_responder.sv(77) @ 95: uvm_test_top.env.s_agent.responder [axi_responder] DATA at responder awsize = 2, addr = d1f43ac8, data = 00000000cac985a8, strb = 00001111
UVM_INFO axi_responder.sv(88) @ 95: uvm_test_top.env.s_agent.responder [axi_responder] Writing at addr = d1f43ac8, data = 00000000cac985a8, strb = 00001111
UVM_INFO axi_sbd_byte.sv(23) @ 115: uvm_test_top.env.sbd [axi_sbd]            0 Writing at addr = d1f43acc, data = 0d52c41900000000
UVM_INFO axi_sbd_byte.sv(23) @ 115: uvm_test_top.env.sbd [axi_sbd]            1 Writing at addr = d1f43ad0, data = 0000000035d4b1d8
UVM_INFO axi_sbd_byte.sv(23) @ 115: uvm_test_top.env.sbd [axi_sbd]            2 Writing at addr = d1f43ad4, data = 449efd9300000000
UVM_INFO axi_sbd_byte.sv(23) @ 115: uvm_test_top.env.sbd [axi_sbd]            3 Writing at addr = d1f43ad8, data = 00000000c4587109
UVM_INFO axi_sbd_byte.sv(23) @ 115: uvm_test_top.env.sbd [axi_sbd]            4 Writing at addr = d1f43adc, data = 172bf92400000000
UVM_INFO axi_sbd_byte.sv(23) @ 115: uvm_test_top.env.sbd [axi_sbd]            5 Writing at addr = d1f43ae0, data = 00000000e29b475c
UVM_INFO axi_sbd_byte.sv(23) @ 115: uvm_test_top.env.sbd [axi_sbd]            6 Writing at addr = d1f43ae4, data = 82f0005a00000000
UVM_INFO axi_sbd_byte.sv(23) @ 115: uvm_test_top.env.sbd [axi_sbd]            7 Writing at addr = d1f43ae8, data = 00000000cac985a8
UVM_INFO axi_drv.sv(47) @ 125: uvm_test_top.env.m_agent.drv [axi_drv] Driving tx
UVM_INFO axi_responder.sv(57) @ 135: uvm_test_top.env.s_agent.responder [AWSIZE_DEBUG] Captured awsize = 3, tx.burst_size = 3, vif.bursts_size = 3 from interface
UVM_INFO axi_tx.sv(90) @ 135: reporter@@wr_tx [AXI_TX WRAP CALC]  addr = 1d5faa80
UVM_INFO axi_tx.sv(91) @ 135: reporter@@wr_tx [AXI_TX WRAP CALC]  wrap_lower_addr = 1d5faa58 
UVM_INFO axi_tx.sv(92) @ 135: reporter@@wr_tx [AXI_TX WRAP CALC]  wrap_upper_addr = 1d5faa8f 
UVM_INFO axi_drv.sv(111) @ 155: uvm_test_top.env.m_agent.drv [DRV_DATA] ................... data_ref = 4dfd161a176058d8, wstrb_t = 11111111, strb_pos=0, addr = 1d5faa80 
UVM_INFO axi_responder.sv(77) @ 155: uvm_test_top.env.s_agent.responder [axi_responder] DATA at responder awsize = 3, addr = 1d5faa80, data = 4dfd161a176058d8, strb = 11111111
UVM_INFO axi_responder.sv(88) @ 155: uvm_test_top.env.s_agent.responder [axi_responder] Writing at addr = 1d5faa80, data = 4dfd161a176058d8, strb = 11111111
UVM_INFO axi_drv.sv(111) @ 165: uvm_test_top.env.m_agent.drv [DRV_DATA] ................... data_ref = 5cfff742048370a5, wstrb_t = 11111111, strb_pos=0, addr = 1d5faa88 
UVM_INFO axi_responder.sv(77) @ 165: uvm_test_top.env.s_agent.responder [axi_responder] DATA at responder awsize = 3, addr = 1d5faa88, data = 5cfff742048370a5, strb = 11111111
UVM_INFO axi_responder.sv(88) @ 165: uvm_test_top.env.s_agent.responder [axi_responder] Writing at addr = 1d5faa88, data = 5cfff742048370a5, strb = 11111111
UVM_INFO axi_drv.sv(111) @ 175: uvm_test_top.env.m_agent.drv [DRV_DATA] ................... data_ref = 2c6d782b2cdd1bf7, wstrb_t = 11111111, strb_pos=0, addr = 1d5faa90 
UVM_INFO axi_responder.sv(77) @ 175: uvm_test_top.env.s_agent.responder [axi_responder] DATA at responder awsize = 3, addr = 1d5faa58, data = 2c6d782b2cdd1bf7, strb = 11111111
UVM_INFO axi_responder.sv(88) @ 175: uvm_test_top.env.s_agent.responder [axi_responder] Writing at addr = 1d5faa58, data = 2c6d782b2cdd1bf7, strb = 11111111
UVM_INFO axi_drv.sv(111) @ 185: uvm_test_top.env.m_agent.drv [DRV_DATA] ................... data_ref = f381c548d0bd2f92, wstrb_t = 11111111, strb_pos=0, addr = 1d5faa98 
UVM_INFO axi_responder.sv(77) @ 185: uvm_test_top.env.s_agent.responder [axi_responder] DATA at responder awsize = 3, addr = 1d5faa60, data = f381c548d0bd2f92, strb = 11111111
UVM_INFO axi_responder.sv(88) @ 185: uvm_test_top.env.s_agent.responder [axi_responder] Writing at addr = 1d5faa60, data = f381c548d0bd2f92, strb = 11111111
UVM_INFO axi_drv.sv(111) @ 195: uvm_test_top.env.m_agent.drv [DRV_DATA] ................... data_ref = 7a53e77cb362bdfb, wstrb_t = 11111111, strb_pos=0, addr = 1d5faaa0 
UVM_INFO axi_responder.sv(77) @ 195: uvm_test_top.env.s_agent.responder [axi_responder] DATA at responder awsize = 3, addr = 1d5faa68, data = 7a53e77cb362bdfb, strb = 11111111
UVM_INFO axi_responder.sv(88) @ 195: uvm_test_top.env.s_agent.responder [axi_responder] Writing at addr = 1d5faa68, data = 7a53e77cb362bdfb, strb = 11111111
UVM_INFO axi_drv.sv(111) @ 205: uvm_test_top.env.m_agent.drv [DRV_DATA] ................... data_ref = 5e34532e7924fb34, wstrb_t = 11111111, strb_pos=0, addr = 1d5faaa8 
UVM_INFO axi_responder.sv(77) @ 205: uvm_test_top.env.s_agent.responder [axi_responder] DATA at responder awsize = 3, addr = 1d5faa70, data = 5e34532e7924fb34, strb = 11111111
UVM_INFO axi_responder.sv(88) @ 205: uvm_test_top.env.s_agent.responder [axi_responder] Writing at addr = 1d5faa70, data = 5e34532e7924fb34, strb = 11111111
UVM_INFO axi_drv.sv(111) @ 215: uvm_test_top.env.m_agent.drv [DRV_DATA] ................... data_ref = fed99614958b0962, wstrb_t = 11111111, strb_pos=0, addr = 1d5faab0 
UVM_INFO axi_responder.sv(77) @ 215: uvm_test_top.env.s_agent.responder [axi_responder] DATA at responder awsize = 3, addr = 1d5faa78, data = fed99614958b0962, strb = 11111111
UVM_INFO axi_responder.sv(88) @ 215: uvm_test_top.env.s_agent.responder [axi_responder] Writing at addr = 1d5faa78, data = fed99614958b0962, strb = 11111111
UVM_INFO axi_sbd_byte.sv(23) @ 235: uvm_test_top.env.sbd [axi_sbd]            0 Writing at addr = 1d5faa80, data = 4dfd161a176058d8
UVM_INFO axi_sbd_byte.sv(23) @ 235: uvm_test_top.env.sbd [axi_sbd]            1 Writing at addr = 1d5faa88, data = 5cfff742048370a5
UVM_INFO axi_sbd_byte.sv(23) @ 235: uvm_test_top.env.sbd [axi_sbd]            2 Writing at addr = 1d5faa90, data = 2c6d782b2cdd1bf7
UVM_INFO axi_sbd_byte.sv(23) @ 235: uvm_test_top.env.sbd [axi_sbd]            3 Writing at addr = 1d5faa98, data = f381c548d0bd2f92
UVM_INFO axi_sbd_byte.sv(23) @ 235: uvm_test_top.env.sbd [axi_sbd]            4 Writing at addr = 1d5faaa0, data = 7a53e77cb362bdfb
UVM_INFO axi_sbd_byte.sv(23) @ 235: uvm_test_top.env.sbd [axi_sbd]            5 Writing at addr = 1d5faaa8, data = 5e34532e7924fb34
UVM_INFO axi_sbd_byte.sv(23) @ 235: uvm_test_top.env.sbd [axi_sbd]            6 Writing at addr = 1d5faab0, data = fed99614958b0962
UVM_INFO axi_drv.sv(47) @ 245: uvm_test_top.env.m_agent.drv [axi_drv] Driving tx
UVM_INFO axi_responder.sv(57) @ 255: uvm_test_top.env.s_agent.responder [AWSIZE_DEBUG] Captured awsize = 2, tx.burst_size = 2, vif.bursts_size = 2 from interface
UVM_INFO axi_tx.sv(90) @ 255: reporter@@wr_tx [AXI_TX WRAP CALC]  addr = 71989f7c
UVM_INFO axi_tx.sv(91) @ 255: reporter@@wr_tx [AXI_TX WRAP CALC]  wrap_lower_addr = 71989f74 
UVM_INFO axi_tx.sv(92) @ 255: reporter@@wr_tx [AXI_TX WRAP CALC]  wrap_upper_addr = 71989f8f 
UVM_INFO axi_drv.sv(111) @ 275: uvm_test_top.env.m_agent.drv [DRV_DATA] ................... data_ref = 45ae746500000000, wstrb_t = 11110000, strb_pos=4, addr = 71989f7c 
UVM_INFO axi_responder.sv(77) @ 275: uvm_test_top.env.s_agent.responder [axi_responder] DATA at responder awsize = 2, addr = 71989f7c, data = 45ae746500000000, strb = 11110000
UVM_INFO axi_responder.sv(88) @ 275: uvm_test_top.env.s_agent.responder [axi_responder] Writing at addr = 71989f7c, data = 45ae746500000000, strb = 11110000
UVM_INFO axi_drv.sv(111) @ 285: uvm_test_top.env.m_agent.drv [DRV_DATA] ................... data_ref = 00000000672b5c09, wstrb_t = 00001111, strb_pos=0, addr = 71989f80 
UVM_INFO axi_responder.sv(77) @ 285: uvm_test_top.env.s_agent.responder [axi_responder] DATA at responder awsize = 2, addr = 71989f80, data = 00000000672b5c09, strb = 00001111
UVM_INFO axi_responder.sv(88) @ 285: uvm_test_top.env.s_agent.responder [axi_responder] Writing at addr = 71989f80, data = 00000000672b5c09, strb = 00001111
UVM_INFO axi_drv.sv(111) @ 295: uvm_test_top.env.m_agent.drv [DRV_DATA] ................... data_ref = 7f571c2900000000, wstrb_t = 11110000, strb_pos=4, addr = 71989f84 
UVM_INFO axi_responder.sv(77) @ 295: uvm_test_top.env.s_agent.responder [axi_responder] DATA at responder awsize = 2, addr = 71989f84, data = 7f571c2900000000, strb = 11110000
UVM_INFO axi_responder.sv(88) @ 295: uvm_test_top.env.s_agent.responder [axi_responder] Writing at addr = 71989f84, data = 7f571c2900000000, strb = 11110000
UVM_INFO axi_drv.sv(111) @ 305: uvm_test_top.env.m_agent.drv [DRV_DATA] ................... data_ref = 000000001d045e41, wstrb_t = 00001111, strb_pos=0, addr = 71989f88 
UVM_INFO axi_responder.sv(77) @ 305: uvm_test_top.env.s_agent.responder [axi_responder] DATA at responder awsize = 2, addr = 71989f88, data = 000000001d045e41, strb = 00001111
UVM_INFO axi_responder.sv(88) @ 305: uvm_test_top.env.s_agent.responder [axi_responder] Writing at addr = 71989f88, data = 000000001d045e41, strb = 00001111
UVM_INFO axi_drv.sv(111) @ 315: uvm_test_top.env.m_agent.drv [DRV_DATA] ................... data_ref = 6217c15900000000, wstrb_t = 11110000, strb_pos=4, addr = 71989f8c 
UVM_INFO axi_responder.sv(77) @ 315: uvm_test_top.env.s_agent.responder [axi_responder] DATA at responder awsize = 2, addr = 71989f8c, data = 6217c15900000000, strb = 11110000
UVM_INFO axi_responder.sv(88) @ 315: uvm_test_top.env.s_agent.responder [axi_responder] Writing at addr = 71989f8c, data = 6217c15900000000, strb = 11110000
UVM_INFO axi_drv.sv(111) @ 325: uvm_test_top.env.m_agent.drv [DRV_DATA] ................... data_ref = 000000004769d44a, wstrb_t = 00001111, strb_pos=0, addr = 71989f90 
UVM_INFO axi_responder.sv(77) @ 325: uvm_test_top.env.s_agent.responder [axi_responder] DATA at responder awsize = 2, addr = 71989f74, data = 000000004769d44a, strb = 00001111
UVM_INFO axi_responder.sv(88) @ 325: uvm_test_top.env.s_agent.responder [axi_responder] Writing at addr = 71989f74, data = 000000004769d44a, strb = 00001111
UVM_INFO axi_drv.sv(111) @ 335: uvm_test_top.env.m_agent.drv [DRV_DATA] ................... data_ref = 63a3e9aa00000000, wstrb_t = 11110000, strb_pos=4, addr = 71989f94 
UVM_INFO axi_responder.sv(77) @ 335: uvm_test_top.env.s_agent.responder [axi_responder] DATA at responder awsize = 2, addr = 71989f78, data = 63a3e9aa00000000, strb = 11110000
UVM_INFO axi_responder.sv(88) @ 335: uvm_test_top.env.s_agent.responder [axi_responder] Writing at addr = 71989f78, data = 63a3e9aa00000000, strb = 11110000
UVM_INFO axi_sbd_byte.sv(23) @ 355: uvm_test_top.env.sbd [axi_sbd]            0 Writing at addr = 71989f7c, data = 45ae746500000000
UVM_INFO axi_sbd_byte.sv(23) @ 355: uvm_test_top.env.sbd [axi_sbd]            1 Writing at addr = 71989f80, data = 00000000672b5c09
UVM_INFO axi_sbd_byte.sv(23) @ 355: uvm_test_top.env.sbd [axi_sbd]            2 Writing at addr = 71989f84, data = 7f571c2900000000
UVM_INFO axi_sbd_byte.sv(23) @ 355: uvm_test_top.env.sbd [axi_sbd]            3 Writing at addr = 71989f88, data = 000000001d045e41
UVM_INFO axi_sbd_byte.sv(23) @ 355: uvm_test_top.env.sbd [axi_sbd]            4 Writing at addr = 71989f8c, data = 6217c15900000000
UVM_INFO axi_sbd_byte.sv(23) @ 355: uvm_test_top.env.sbd [axi_sbd]            5 Writing at addr = 71989f90, data = 000000004769d44a
UVM_INFO axi_sbd_byte.sv(23) @ 355: uvm_test_top.env.sbd [axi_sbd]            6 Writing at addr = 71989f94, data = 63a3e9aa00000000
UVM_INFO axi_drv.sv(47) @ 365: uvm_test_top.env.m_agent.drv [axi_drv] Driving tx
UVM_INFO axi_responder.sv(57) @ 375: uvm_test_top.env.s_agent.responder [AWSIZE_DEBUG] Captured awsize = 2, tx.burst_size = 2, vif.bursts_size = 2 from interface
UVM_INFO axi_tx.sv(90) @ 375: reporter@@wr_tx [AXI_TX WRAP CALC]  addr = 3a504df4
UVM_INFO axi_tx.sv(91) @ 375: reporter@@wr_tx [AXI_TX WRAP CALC]  wrap_lower_addr = 3a504df4 
UVM_INFO axi_tx.sv(92) @ 375: reporter@@wr_tx [AXI_TX WRAP CALC]  wrap_upper_addr = 3a504e1f 
UVM_INFO axi_drv.sv(111) @ 395: uvm_test_top.env.m_agent.drv [DRV_DATA] ................... data_ref = f662953800000000, wstrb_t = 11110000, strb_pos=4, addr = 3a504df4 
UVM_INFO axi_responder.sv(77) @ 395: uvm_test_top.env.s_agent.responder [axi_responder] DATA at responder awsize = 2, addr = 3a504df4, data = f662953800000000, strb = 11110000
UVM_INFO axi_responder.sv(88) @ 395: uvm_test_top.env.s_agent.responder [axi_responder] Writing at addr = 3a504df4, data = f662953800000000, strb = 11110000
UVM_INFO axi_drv.sv(111) @ 405: uvm_test_top.env.m_agent.drv [DRV_DATA] ................... data_ref = 00000000c8e262b9, wstrb_t = 00001111, strb_pos=0, addr = 3a504df8 
UVM_INFO axi_responder.sv(77) @ 405: uvm_test_top.env.s_agent.responder [axi_responder] DATA at responder awsize = 2, addr = 3a504df8, data = 00000000c8e262b9, strb = 00001111
UVM_INFO axi_responder.sv(88) @ 405: uvm_test_top.env.s_agent.responder [axi_responder] Writing at addr = 3a504df8, data = 00000000c8e262b9, strb = 00001111
UVM_INFO axi_drv.sv(111) @ 415: uvm_test_top.env.m_agent.drv [DRV_DATA] ................... data_ref = 0eed3d4000000000, wstrb_t = 11110000, strb_pos=4, addr = 3a504dfc 
UVM_INFO axi_responder.sv(77) @ 415: uvm_test_top.env.s_agent.responder [axi_responder] DATA at responder awsize = 2, addr = 3a504dfc, data = 0eed3d4000000000, strb = 11110000
UVM_INFO axi_responder.sv(88) @ 415: uvm_test_top.env.s_agent.responder [axi_responder] Writing at addr = 3a504dfc, data = 0eed3d4000000000, strb = 11110000
UVM_INFO axi_drv.sv(111) @ 425: uvm_test_top.env.m_agent.drv [DRV_DATA] ................... data_ref = 00000000c9aef26b, wstrb_t = 00001111, strb_pos=0, addr = 3a504e00 
UVM_INFO axi_responder.sv(77) @ 425: uvm_test_top.env.s_agent.responder [axi_responder] DATA at responder awsize = 2, addr = 3a504e00, data = 00000000c9aef26b, strb = 00001111
UVM_INFO axi_responder.sv(88) @ 425: uvm_test_top.env.s_agent.responder [axi_responder] Writing at addr = 3a504e00, data = 00000000c9aef26b, strb = 00001111
UVM_INFO axi_drv.sv(111) @ 435: uvm_test_top.env.m_agent.drv [DRV_DATA] ................... data_ref = 030402df00000000, wstrb_t = 11110000, strb_pos=4, addr = 3a504e04 
UVM_INFO axi_responder.sv(77) @ 435: uvm_test_top.env.s_agent.responder [axi_responder] DATA at responder awsize = 2, addr = 3a504e04, data = 030402df00000000, strb = 11110000
UVM_INFO axi_responder.sv(88) @ 435: uvm_test_top.env.s_agent.responder [axi_responder] Writing at addr = 3a504e04, data = 030402df00000000, strb = 11110000
UVM_INFO axi_drv.sv(111) @ 445: uvm_test_top.env.m_agent.drv [DRV_DATA] ................... data_ref = 00000000cef9884b, wstrb_t = 00001111, strb_pos=0, addr = 3a504e08 
UVM_INFO axi_responder.sv(77) @ 445: uvm_test_top.env.s_agent.responder [axi_responder] DATA at responder awsize = 2, addr = 3a504e08, data = 00000000cef9884b, strb = 00001111
UVM_INFO axi_responder.sv(88) @ 445: uvm_test_top.env.s_agent.responder [axi_responder] Writing at addr = 3a504e08, data = 00000000cef9884b, strb = 00001111
UVM_INFO axi_drv.sv(111) @ 455: uvm_test_top.env.m_agent.drv [DRV_DATA] ................... data_ref = 7ae677e800000000, wstrb_t = 11110000, strb_pos=4, addr = 3a504e0c 
UVM_INFO axi_responder.sv(77) @ 455: uvm_test_top.env.s_agent.responder [axi_responder] DATA at responder awsize = 2, addr = 3a504e0c, data = 7ae677e800000000, strb = 11110000
UVM_INFO axi_responder.sv(88) @ 455: uvm_test_top.env.s_agent.responder [axi_responder] Writing at addr = 3a504e0c, data = 7ae677e800000000, strb = 11110000
UVM_INFO axi_drv.sv(111) @ 465: uvm_test_top.env.m_agent.drv [DRV_DATA] ................... data_ref = 0000000036ce6277, wstrb_t = 00001111, strb_pos=0, addr = 3a504e10 
UVM_INFO axi_responder.sv(77) @ 465: uvm_test_top.env.s_agent.responder [axi_responder] DATA at responder awsize = 2, addr = 3a504e10, data = 0000000036ce6277, strb = 00001111
UVM_INFO axi_responder.sv(88) @ 465: uvm_test_top.env.s_agent.responder [axi_responder] Writing at addr = 3a504e10, data = 0000000036ce6277, strb = 00001111
UVM_INFO axi_drv.sv(111) @ 475: uvm_test_top.env.m_agent.drv [DRV_DATA] ................... data_ref = c51e64d000000000, wstrb_t = 11110000, strb_pos=4, addr = 3a504e14 
UVM_INFO axi_responder.sv(77) @ 475: uvm_test_top.env.s_agent.responder [axi_responder] DATA at responder awsize = 2, addr = 3a504e14, data = c51e64d000000000, strb = 11110000
UVM_INFO axi_responder.sv(88) @ 475: uvm_test_top.env.s_agent.responder [axi_responder] Writing at addr = 3a504e14, data = c51e64d000000000, strb = 11110000
UVM_INFO axi_drv.sv(111) @ 485: uvm_test_top.env.m_agent.drv [DRV_DATA] ................... data_ref = 00000000e5d5bbd5, wstrb_t = 00001111, strb_pos=0, addr = 3a504e18 
UVM_INFO axi_responder.sv(77) @ 485: uvm_test_top.env.s_agent.responder [axi_responder] DATA at responder awsize = 2, addr = 3a504e18, data = 00000000e5d5bbd5, strb = 00001111
UVM_INFO axi_responder.sv(88) @ 485: uvm_test_top.env.s_agent.responder [axi_responder] Writing at addr = 3a504e18, data = 00000000e5d5bbd5, strb = 00001111
UVM_INFO axi_drv.sv(111) @ 495: uvm_test_top.env.m_agent.drv [DRV_DATA] ................... data_ref = 8d8c6df700000000, wstrb_t = 11110000, strb_pos=4, addr = 3a504e1c 
UVM_INFO axi_responder.sv(77) @ 495: uvm_test_top.env.s_agent.responder [axi_responder] DATA at responder awsize = 2, addr = 3a504e1c, data = 8d8c6df700000000, strb = 11110000
UVM_INFO axi_responder.sv(88) @ 495: uvm_test_top.env.s_agent.responder [axi_responder] Writing at addr = 3a504e1c, data = 8d8c6df700000000, strb = 11110000
UVM_INFO axi_sbd_byte.sv(23) @ 515: uvm_test_top.env.sbd [axi_sbd]            0 Writing at addr = 3a504df4, data = f662953800000000
UVM_INFO axi_sbd_byte.sv(23) @ 515: uvm_test_top.env.sbd [axi_sbd]            1 Writing at addr = 3a504df8, data = 00000000c8e262b9
UVM_INFO axi_sbd_byte.sv(23) @ 515: uvm_test_top.env.sbd [axi_sbd]            2 Writing at addr = 3a504dfc, data = 0eed3d4000000000
UVM_INFO axi_sbd_byte.sv(23) @ 515: uvm_test_top.env.sbd [axi_sbd]            3 Writing at addr = 3a504e00, data = 00000000c9aef26b
UVM_INFO axi_sbd_byte.sv(23) @ 515: uvm_test_top.env.sbd [axi_sbd]            4 Writing at addr = 3a504e04, data = 030402df00000000
UVM_INFO axi_sbd_byte.sv(23) @ 515: uvm_test_top.env.sbd [axi_sbd]            5 Writing at addr = 3a504e08, data = 00000000cef9884b
UVM_INFO axi_sbd_byte.sv(23) @ 515: uvm_test_top.env.sbd [axi_sbd]            6 Writing at addr = 3a504e0c, data = 7ae677e800000000
UVM_INFO axi_sbd_byte.sv(23) @ 515: uvm_test_top.env.sbd [axi_sbd]            7 Writing at addr = 3a504e10, data = 0000000036ce6277
UVM_INFO axi_sbd_byte.sv(23) @ 515: uvm_test_top.env.sbd [axi_sbd]            8 Writing at addr = 3a504e14, data = c51e64d000000000
UVM_INFO axi_sbd_byte.sv(23) @ 515: uvm_test_top.env.sbd [axi_sbd]            9 Writing at addr = 3a504e18, data = 00000000e5d5bbd5
UVM_INFO axi_sbd_byte.sv(23) @ 515: uvm_test_top.env.sbd [axi_sbd]           10 Writing at addr = 3a504e1c, data = 8d8c6df700000000
UVM_INFO axi_drv.sv(47) @ 525: uvm_test_top.env.m_agent.drv [axi_drv] Driving tx
UVM_INFO axi_responder.sv(57) @ 535: uvm_test_top.env.s_agent.responder [AWSIZE_DEBUG] Captured awsize = 0, tx.burst_size = 0, vif.bursts_size = 0 from interface
UVM_INFO axi_tx.sv(90) @ 535: reporter@@wr_tx [AXI_TX WRAP CALC]  addr = 89e164eb
UVM_INFO axi_tx.sv(91) @ 535: reporter@@wr_tx [AXI_TX WRAP CALC]  wrap_lower_addr = 89e164eb 
UVM_INFO axi_tx.sv(92) @ 535: reporter@@wr_tx [AXI_TX WRAP CALC]  wrap_upper_addr = 89e164f5 
UVM_INFO axi_drv.sv(111) @ 555: uvm_test_top.env.m_agent.drv [DRV_DATA] ................... data_ref = 000000008c000000, wstrb_t = 00001000, strb_pos=3, addr = 89e164eb 
UVM_INFO axi_responder.sv(77) @ 555: uvm_test_top.env.s_agent.responder [axi_responder] DATA at responder awsize = 0, addr = 89e164eb, data = 000000008c000000, strb = 00001000
UVM_INFO axi_responder.sv(88) @ 555: uvm_test_top.env.s_agent.responder [axi_responder] Writing at addr = 89e164eb, data = 000000008c000000, strb = 00001000
UVM_INFO axi_drv.sv(111) @ 565: uvm_test_top.env.m_agent.drv [DRV_DATA] ................... data_ref = 000000a800000000, wstrb_t = 00010000, strb_pos=4, addr = 89e164ec 
UVM_INFO axi_responder.sv(77) @ 565: uvm_test_top.env.s_agent.responder [axi_responder] DATA at responder awsize = 0, addr = 89e164ec, data = 000000a800000000, strb = 00010000
UVM_INFO axi_responder.sv(88) @ 565: uvm_test_top.env.s_agent.responder [axi_responder] Writing at addr = 89e164ec, data = 000000a800000000, strb = 00010000
UVM_INFO axi_drv.sv(111) @ 575: uvm_test_top.env.m_agent.drv [DRV_DATA] ................... data_ref = 0000910000000000, wstrb_t = 00100000, strb_pos=5, addr = 89e164ed 
UVM_INFO axi_responder.sv(77) @ 575: uvm_test_top.env.s_agent.responder [axi_responder] DATA at responder awsize = 0, addr = 89e164ed, data = 0000910000000000, strb = 00100000
UVM_INFO axi_responder.sv(88) @ 575: uvm_test_top.env.s_agent.responder [axi_responder] Writing at addr = 89e164ed, data = 0000910000000000, strb = 00100000
UVM_INFO axi_drv.sv(111) @ 585: uvm_test_top.env.m_agent.drv [DRV_DATA] ................... data_ref = 0006000000000000, wstrb_t = 01000000, strb_pos=6, addr = 89e164ee 
UVM_INFO axi_responder.sv(77) @ 585: uvm_test_top.env.s_agent.responder [axi_responder] DATA at responder awsize = 0, addr = 89e164ee, data = 0006000000000000, strb = 01000000
UVM_INFO axi_responder.sv(88) @ 585: uvm_test_top.env.s_agent.responder [axi_responder] Writing at addr = 89e164ee, data = 0006000000000000, strb = 01000000
UVM_INFO axi_drv.sv(111) @ 595: uvm_test_top.env.m_agent.drv [DRV_DATA] ................... data_ref = 6c00000000000000, wstrb_t = 10000000, strb_pos=7, addr = 89e164ef 
UVM_INFO axi_responder.sv(77) @ 595: uvm_test_top.env.s_agent.responder [axi_responder] DATA at responder awsize = 0, addr = 89e164ef, data = 6c00000000000000, strb = 10000000
UVM_INFO axi_responder.sv(88) @ 595: uvm_test_top.env.s_agent.responder [axi_responder] Writing at addr = 89e164ef, data = 6c00000000000000, strb = 10000000
UVM_INFO axi_drv.sv(111) @ 605: uvm_test_top.env.m_agent.drv [DRV_DATA] ................... data_ref = 0000000000000066, wstrb_t = 00000001, strb_pos=0, addr = 89e164f0 
UVM_INFO axi_responder.sv(77) @ 605: uvm_test_top.env.s_agent.responder [axi_responder] DATA at responder awsize = 0, addr = 89e164f0, data = 0000000000000066, strb = 00000001
UVM_INFO axi_responder.sv(88) @ 605: uvm_test_top.env.s_agent.responder [axi_responder] Writing at addr = 89e164f0, data = 0000000000000066, strb = 00000001
UVM_INFO axi_drv.sv(111) @ 615: uvm_test_top.env.m_agent.drv [DRV_DATA] ................... data_ref = 0000000000008a00, wstrb_t = 00000010, strb_pos=1, addr = 89e164f1 
UVM_INFO axi_responder.sv(77) @ 615: uvm_test_top.env.s_agent.responder [axi_responder] DATA at responder awsize = 0, addr = 89e164f1, data = 0000000000008a00, strb = 00000010
UVM_INFO axi_responder.sv(88) @ 615: uvm_test_top.env.s_agent.responder [axi_responder] Writing at addr = 89e164f1, data = 0000000000008a00, strb = 00000010
UVM_INFO axi_drv.sv(111) @ 625: uvm_test_top.env.m_agent.drv [DRV_DATA] ................... data_ref = 0000000000190000, wstrb_t = 00000100, strb_pos=2, addr = 89e164f2 
UVM_INFO axi_responder.sv(77) @ 625: uvm_test_top.env.s_agent.responder [axi_responder] DATA at responder awsize = 0, addr = 89e164f2, data = 0000000000190000, strb = 00000100
UVM_INFO axi_responder.sv(88) @ 625: uvm_test_top.env.s_agent.responder [axi_responder] Writing at addr = 89e164f2, data = 0000000000190000, strb = 00000100
UVM_INFO axi_drv.sv(111) @ 635: uvm_test_top.env.m_agent.drv [DRV_DATA] ................... data_ref = 000000004e000000, wstrb_t = 00001000, strb_pos=3, addr = 89e164f3 
UVM_INFO axi_responder.sv(77) @ 635: uvm_test_top.env.s_agent.responder [axi_responder] DATA at responder awsize = 0, addr = 89e164f3, data = 000000004e000000, strb = 00001000
UVM_INFO axi_responder.sv(88) @ 635: uvm_test_top.env.s_agent.responder [axi_responder] Writing at addr = 89e164f3, data = 000000004e000000, strb = 00001000
UVM_INFO axi_drv.sv(111) @ 645: uvm_test_top.env.m_agent.drv [DRV_DATA] ................... data_ref = 0000009000000000, wstrb_t = 00010000, strb_pos=4, addr = 89e164f4 
UVM_INFO axi_responder.sv(77) @ 645: uvm_test_top.env.s_agent.responder [axi_responder] DATA at responder awsize = 0, addr = 89e164f4, data = 0000009000000000, strb = 00010000
UVM_INFO axi_responder.sv(88) @ 645: uvm_test_top.env.s_agent.responder [axi_responder] Writing at addr = 89e164f4, data = 0000009000000000, strb = 00010000
UVM_INFO axi_drv.sv(111) @ 655: uvm_test_top.env.m_agent.drv [DRV_DATA] ................... data_ref = 0000a40000000000, wstrb_t = 00100000, strb_pos=5, addr = 89e164f5 
UVM_INFO axi_responder.sv(77) @ 655: uvm_test_top.env.s_agent.responder [axi_responder] DATA at responder awsize = 0, addr = 89e164eb, data = 0000a40000000000, strb = 00100000
UVM_INFO axi_responder.sv(88) @ 655: uvm_test_top.env.s_agent.responder [axi_responder] Writing at addr = 89e164eb, data = 0000a40000000000, strb = 00100000
UVM_INFO axi_sbd_byte.sv(23) @ 675: uvm_test_top.env.sbd [axi_sbd]            0 Writing at addr = 89e164eb, data = 000000008c000000
UVM_INFO axi_sbd_byte.sv(23) @ 675: uvm_test_top.env.sbd [axi_sbd]            1 Writing at addr = 89e164ec, data = 000000a800000000
UVM_INFO axi_sbd_byte.sv(23) @ 675: uvm_test_top.env.sbd [axi_sbd]            2 Writing at addr = 89e164ed, data = 0000910000000000
UVM_INFO axi_sbd_byte.sv(23) @ 675: uvm_test_top.env.sbd [axi_sbd]            3 Writing at addr = 89e164ee, data = 0006000000000000
UVM_INFO axi_sbd_byte.sv(23) @ 675: uvm_test_top.env.sbd [axi_sbd]            4 Writing at addr = 89e164ef, data = 6c00000000000000
UVM_INFO axi_sbd_byte.sv(23) @ 675: uvm_test_top.env.sbd [axi_sbd]            5 Writing at addr = 89e164f0, data = 0000000000000066
UVM_INFO axi_sbd_byte.sv(23) @ 675: uvm_test_top.env.sbd [axi_sbd]            6 Writing at addr = 89e164f1, data = 0000000000008a00
UVM_INFO axi_sbd_byte.sv(23) @ 675: uvm_test_top.env.sbd [axi_sbd]            7 Writing at addr = 89e164f2, data = 0000000000190000
UVM_INFO axi_sbd_byte.sv(23) @ 675: uvm_test_top.env.sbd [axi_sbd]            8 Writing at addr = 89e164f3, data = 000000004e000000
UVM_INFO axi_sbd_byte.sv(23) @ 675: uvm_test_top.env.sbd [axi_sbd]            9 Writing at addr = 89e164f4, data = 0000009000000000
UVM_INFO axi_sbd_byte.sv(23) @ 675: uvm_test_top.env.sbd [axi_sbd]           10 Writing at addr = 89e164f5, data = 0000a40000000000
UVM_INFO axi_drv.sv(47) @ 685: uvm_test_top.env.m_agent.drv [axi_drv] Driving tx
UVM_INFO axi_responder.sv(57) @ 695: uvm_test_top.env.s_agent.responder [AWSIZE_DEBUG] Captured awsize = 2, tx.burst_size = 2, vif.bursts_size = 2 from interface
UVM_INFO axi_tx.sv(90) @ 695: reporter@@wr_tx [AXI_TX WRAP CALC]  addr = dd9157d4
UVM_INFO axi_tx.sv(91) @ 695: reporter@@wr_tx [AXI_TX WRAP CALC]  wrap_lower_addr = dd9157d0 
UVM_INFO axi_tx.sv(92) @ 695: reporter@@wr_tx [AXI_TX WRAP CALC]  wrap_upper_addr = dd9157df 
UVM_INFO axi_drv.sv(111) @ 715: uvm_test_top.env.m_agent.drv [DRV_DATA] ................... data_ref = 34a4ec6700000000, wstrb_t = 11110000, strb_pos=4, addr = dd9157d4 
UVM_INFO axi_responder.sv(77) @ 715: uvm_test_top.env.s_agent.responder [axi_responder] DATA at responder awsize = 2, addr = dd9157d4, data = 34a4ec6700000000, strb = 11110000
UVM_INFO axi_responder.sv(88) @ 715: uvm_test_top.env.s_agent.responder [axi_responder] Writing at addr = dd9157d4, data = 34a4ec6700000000, strb = 11110000
UVM_INFO axi_drv.sv(111) @ 725: uvm_test_top.env.m_agent.drv [DRV_DATA] ................... data_ref = 0000000028c0dd34, wstrb_t = 00001111, strb_pos=0, addr = dd9157d8 
UVM_INFO axi_responder.sv(77) @ 725: uvm_test_top.env.s_agent.responder [axi_responder] DATA at responder awsize = 2, addr = dd9157d8, data = 0000000028c0dd34, strb = 00001111
UVM_INFO axi_responder.sv(88) @ 725: uvm_test_top.env.s_agent.responder [axi_responder] Writing at addr = dd9157d8, data = 0000000028c0dd34, strb = 00001111
UVM_INFO axi_drv.sv(111) @ 735: uvm_test_top.env.m_agent.drv [DRV_DATA] ................... data_ref = e62d2bdd00000000, wstrb_t = 11110000, strb_pos=4, addr = dd9157dc 
UVM_INFO axi_responder.sv(77) @ 735: uvm_test_top.env.s_agent.responder [axi_responder] DATA at responder awsize = 2, addr = dd9157dc, data = e62d2bdd00000000, strb = 11110000
UVM_INFO axi_responder.sv(88) @ 735: uvm_test_top.env.s_agent.responder [axi_responder] Writing at addr = dd9157dc, data = e62d2bdd00000000, strb = 11110000
UVM_INFO axi_drv.sv(111) @ 745: uvm_test_top.env.m_agent.drv [DRV_DATA] ................... data_ref = 00000000cb59f9cf, wstrb_t = 00001111, strb_pos=0, addr = dd9157e0 
UVM_INFO axi_responder.sv(77) @ 745: uvm_test_top.env.s_agent.responder [axi_responder] DATA at responder awsize = 2, addr = dd9157d0, data = 00000000cb59f9cf, strb = 00001111
UVM_INFO axi_responder.sv(88) @ 745: uvm_test_top.env.s_agent.responder [axi_responder] Writing at addr = dd9157d0, data = 00000000cb59f9cf, strb = 00001111
UVM_INFO axi_sbd_byte.sv(23) @ 765: uvm_test_top.env.sbd [axi_sbd]            0 Writing at addr = dd9157d4, data = 34a4ec6700000000
UVM_INFO axi_sbd_byte.sv(23) @ 765: uvm_test_top.env.sbd [axi_sbd]            1 Writing at addr = dd9157d8, data = 0000000028c0dd34
UVM_INFO axi_sbd_byte.sv(23) @ 765: uvm_test_top.env.sbd [axi_sbd]            2 Writing at addr = dd9157dc, data = e62d2bdd00000000
UVM_INFO axi_sbd_byte.sv(23) @ 765: uvm_test_top.env.sbd [axi_sbd]            3 Writing at addr = dd9157e0, data = 00000000cb59f9cf
UVM_INFO axi_drv.sv(47) @ 775: uvm_test_top.env.m_agent.drv [axi_drv] Driving tx
UVM_INFO axi_responder.sv(57) @ 785: uvm_test_top.env.s_agent.responder [AWSIZE_DEBUG] Captured awsize = 0, tx.burst_size = 0, vif.bursts_size = 0 from interface
UVM_INFO axi_tx.sv(90) @ 785: reporter@@wr_tx [AXI_TX WRAP CALC]  addr = 375e8603
UVM_INFO axi_tx.sv(91) @ 785: reporter@@wr_tx [AXI_TX WRAP CALC]  wrap_lower_addr = 375e8602 
UVM_INFO axi_tx.sv(92) @ 785: reporter@@wr_tx [AXI_TX WRAP CALC]  wrap_upper_addr = 375e8604 
UVM_INFO axi_drv.sv(111) @ 805: uvm_test_top.env.m_agent.drv [DRV_DATA] ................... data_ref = 000000004f000000, wstrb_t = 00001000, strb_pos=3, addr = 375e8603 
UVM_INFO axi_responder.sv(77) @ 805: uvm_test_top.env.s_agent.responder [axi_responder] DATA at responder awsize = 0, addr = 375e8603, data = 000000004f000000, strb = 00001000
UVM_INFO axi_responder.sv(88) @ 805: uvm_test_top.env.s_agent.responder [axi_responder] Writing at addr = 375e8603, data = 000000004f000000, strb = 00001000
UVM_INFO axi_drv.sv(111) @ 815: uvm_test_top.env.m_agent.drv [DRV_DATA] ................... data_ref = 000000fd00000000, wstrb_t = 00010000, strb_pos=4, addr = 375e8604 
UVM_INFO axi_responder.sv(77) @ 815: uvm_test_top.env.s_agent.responder [axi_responder] DATA at responder awsize = 0, addr = 375e8602, data = 000000fd00000000, strb = 00010000
UVM_INFO axi_responder.sv(88) @ 815: uvm_test_top.env.s_agent.responder [axi_responder] Writing at addr = 375e8602, data = 000000fd00000000, strb = 00010000
UVM_INFO axi_drv.sv(111) @ 825: uvm_test_top.env.m_agent.drv [DRV_DATA] ................... data_ref = 00003e0000000000, wstrb_t = 00100000, strb_pos=5, addr = 375e8605 
UVM_INFO axi_responder.sv(77) @ 825: uvm_test_top.env.s_agent.responder [axi_responder] DATA at responder awsize = 0, addr = 375e8603, data = 00003e0000000000, strb = 00100000
UVM_INFO axi_responder.sv(88) @ 825: uvm_test_top.env.s_agent.responder [axi_responder] Writing at addr = 375e8603, data = 00003e0000000000, strb = 00100000
UVM_INFO axi_sbd_byte.sv(23) @ 845: uvm_test_top.env.sbd [axi_sbd]            0 Writing at addr = 375e8603, data = 000000004f000000
UVM_INFO axi_sbd_byte.sv(23) @ 845: uvm_test_top.env.sbd [axi_sbd]            1 Writing at addr = 375e8604, data = 000000fd00000000
UVM_INFO axi_sbd_byte.sv(23) @ 845: uvm_test_top.env.sbd [axi_sbd]            2 Writing at addr = 375e8605, data = 00003e0000000000
UVM_INFO axi_drv.sv(47) @ 855: uvm_test_top.env.m_agent.drv [axi_drv] Driving tx
UVM_INFO axi_responder.sv(57) @ 865: uvm_test_top.env.s_agent.responder [AWSIZE_DEBUG] Captured awsize = 0, tx.burst_size = 0, vif.bursts_size = 0 from interface
UVM_INFO axi_tx.sv(90) @ 865: reporter@@wr_tx [AXI_TX WRAP CALC]  addr = 008dd690
UVM_INFO axi_tx.sv(91) @ 865: reporter@@wr_tx [AXI_TX WRAP CALC]  wrap_lower_addr = 008dd687 
UVM_INFO axi_tx.sv(92) @ 865: reporter@@wr_tx [AXI_TX WRAP CALC]  wrap_upper_addr = 008dd691 
UVM_INFO axi_drv.sv(111) @ 885: uvm_test_top.env.m_agent.drv [DRV_DATA] ................... data_ref = 0000000000000031, wstrb_t = 00000001, strb_pos=0, addr = 008dd690 
UVM_INFO axi_responder.sv(77) @ 885: uvm_test_top.env.s_agent.responder [axi_responder] DATA at responder awsize = 0, addr = 008dd690, data = 0000000000000031, strb = 00000001
UVM_INFO axi_responder.sv(88) @ 885: uvm_test_top.env.s_agent.responder [axi_responder] Writing at addr = 008dd690, data = 0000000000000031, strb = 00000001
UVM_INFO axi_drv.sv(111) @ 895: uvm_test_top.env.m_agent.drv [DRV_DATA] ................... data_ref = 000000000000f500, wstrb_t = 00000010, strb_pos=1, addr = 008dd691 
UVM_INFO axi_responder.sv(77) @ 895: uvm_test_top.env.s_agent.responder [axi_responder] DATA at responder awsize = 0, addr = 008dd687, data = 000000000000f500, strb = 00000010
UVM_INFO axi_responder.sv(88) @ 895: uvm_test_top.env.s_agent.responder [axi_responder] Writing at addr = 008dd687, data = 000000000000f500, strb = 00000010
UVM_INFO axi_drv.sv(111) @ 905: uvm_test_top.env.m_agent.drv [DRV_DATA] ................... data_ref = 0000000000bc0000, wstrb_t = 00000100, strb_pos=2, addr = 008dd692 
UVM_INFO axi_responder.sv(77) @ 905: uvm_test_top.env.s_agent.responder [axi_responder] DATA at responder awsize = 0, addr = 008dd688, data = 0000000000bc0000, strb = 00000100
UVM_INFO axi_responder.sv(88) @ 905: uvm_test_top.env.s_agent.responder [axi_responder] Writing at addr = 008dd688, data = 0000000000bc0000, strb = 00000100
UVM_INFO axi_drv.sv(111) @ 915: uvm_test_top.env.m_agent.drv [DRV_DATA] ................... data_ref = 000000000d000000, wstrb_t = 00001000, strb_pos=3, addr = 008dd693 
UVM_INFO axi_responder.sv(77) @ 915: uvm_test_top.env.s_agent.responder [axi_responder] DATA at responder awsize = 0, addr = 008dd689, data = 000000000d000000, strb = 00001000
UVM_INFO axi_responder.sv(88) @ 915: uvm_test_top.env.s_agent.responder [axi_responder] Writing at addr = 008dd689, data = 000000000d000000, strb = 00001000
UVM_INFO axi_drv.sv(111) @ 925: uvm_test_top.env.m_agent.drv [DRV_DATA] ................... data_ref = 0000000400000000, wstrb_t = 00010000, strb_pos=4, addr = 008dd694 
UVM_INFO axi_responder.sv(77) @ 925: uvm_test_top.env.s_agent.responder [axi_responder] DATA at responder awsize = 0, addr = 008dd68a, data = 0000000400000000, strb = 00010000
UVM_INFO axi_responder.sv(88) @ 925: uvm_test_top.env.s_agent.responder [axi_responder] Writing at addr = 008dd68a, data = 0000000400000000, strb = 00010000
UVM_INFO axi_drv.sv(111) @ 935: uvm_test_top.env.m_agent.drv [DRV_DATA] ................... data_ref = 0000850000000000, wstrb_t = 00100000, strb_pos=5, addr = 008dd695 
UVM_INFO axi_responder.sv(77) @ 935: uvm_test_top.env.s_agent.responder [axi_responder] DATA at responder awsize = 0, addr = 008dd68b, data = 0000850000000000, strb = 00100000
UVM_INFO axi_responder.sv(88) @ 935: uvm_test_top.env.s_agent.responder [axi_responder] Writing at addr = 008dd68b, data = 0000850000000000, strb = 00100000
UVM_INFO axi_drv.sv(111) @ 945: uvm_test_top.env.m_agent.drv [DRV_DATA] ................... data_ref = 0043000000000000, wstrb_t = 01000000, strb_pos=6, addr = 008dd696 
UVM_INFO axi_responder.sv(77) @ 945: uvm_test_top.env.s_agent.responder [axi_responder] DATA at responder awsize = 0, addr = 008dd68c, data = 0043000000000000, strb = 01000000
UVM_INFO axi_responder.sv(88) @ 945: uvm_test_top.env.s_agent.responder [axi_responder] Writing at addr = 008dd68c, data = 0043000000000000, strb = 01000000
UVM_INFO axi_drv.sv(111) @ 955: uvm_test_top.env.m_agent.drv [DRV_DATA] ................... data_ref = eb00000000000000, wstrb_t = 10000000, strb_pos=7, addr = 008dd697 
UVM_INFO axi_responder.sv(77) @ 955: uvm_test_top.env.s_agent.responder [axi_responder] DATA at responder awsize = 0, addr = 008dd68d, data = eb00000000000000, strb = 10000000
UVM_INFO axi_responder.sv(88) @ 955: uvm_test_top.env.s_agent.responder [axi_responder] Writing at addr = 008dd68d, data = eb00000000000000, strb = 10000000
UVM_INFO axi_drv.sv(111) @ 965: uvm_test_top.env.m_agent.drv [DRV_DATA] ................... data_ref = 0000000000000049, wstrb_t = 00000001, strb_pos=0, addr = 008dd698 
UVM_INFO axi_responder.sv(77) @ 965: uvm_test_top.env.s_agent.responder [axi_responder] DATA at responder awsize = 0, addr = 008dd68e, data = 0000000000000049, strb = 00000001
UVM_INFO axi_responder.sv(88) @ 965: uvm_test_top.env.s_agent.responder [axi_responder] Writing at addr = 008dd68e, data = 0000000000000049, strb = 00000001
UVM_INFO axi_drv.sv(111) @ 975: uvm_test_top.env.m_agent.drv [DRV_DATA] ................... data_ref = 0000000000004300, wstrb_t = 00000010, strb_pos=1, addr = 008dd699 
UVM_INFO axi_responder.sv(77) @ 975: uvm_test_top.env.s_agent.responder [axi_responder] DATA at responder awsize = 0, addr = 008dd68f, data = 0000000000004300, strb = 00000010
UVM_INFO axi_responder.sv(88) @ 975: uvm_test_top.env.s_agent.responder [axi_responder] Writing at addr = 008dd68f, data = 0000000000004300, strb = 00000010
UVM_INFO axi_drv.sv(111) @ 985: uvm_test_top.env.m_agent.drv [DRV_DATA] ................... data_ref = 0000000000e20000, wstrb_t = 00000100, strb_pos=2, addr = 008dd69a 
UVM_INFO axi_responder.sv(77) @ 985: uvm_test_top.env.s_agent.responder [axi_responder] DATA at responder awsize = 0, addr = 008dd690, data = 0000000000e20000, strb = 00000100
UVM_INFO axi_responder.sv(88) @ 985: uvm_test_top.env.s_agent.responder [axi_responder] Writing at addr = 008dd690, data = 0000000000e20000, strb = 00000100
UVM_INFO axi_sbd_byte.sv(23) @ 1005: uvm_test_top.env.sbd [axi_sbd]            0 Writing at addr = 008dd690, data = 0000000000000031
UVM_INFO axi_sbd_byte.sv(23) @ 1005: uvm_test_top.env.sbd [axi_sbd]            1 Writing at addr = 008dd691, data = 000000000000f500
UVM_INFO axi_sbd_byte.sv(23) @ 1005: uvm_test_top.env.sbd [axi_sbd]            2 Writing at addr = 008dd692, data = 0000000000bc0000
UVM_INFO axi_sbd_byte.sv(23) @ 1005: uvm_test_top.env.sbd [axi_sbd]            3 Writing at addr = 008dd693, data = 000000000d000000
UVM_INFO axi_sbd_byte.sv(23) @ 1005: uvm_test_top.env.sbd [axi_sbd]            4 Writing at addr = 008dd694, data = 0000000400000000
UVM_INFO axi_sbd_byte.sv(23) @ 1005: uvm_test_top.env.sbd [axi_sbd]            5 Writing at addr = 008dd695, data = 0000850000000000
UVM_INFO axi_sbd_byte.sv(23) @ 1005: uvm_test_top.env.sbd [axi_sbd]            6 Writing at addr = 008dd696, data = 0043000000000000
UVM_INFO axi_sbd_byte.sv(23) @ 1005: uvm_test_top.env.sbd [axi_sbd]            7 Writing at addr = 008dd697, data = eb00000000000000
UVM_INFO axi_sbd_byte.sv(23) @ 1005: uvm_test_top.env.sbd [axi_sbd]            8 Writing at addr = 008dd698, data = 0000000000000049
UVM_INFO axi_sbd_byte.sv(23) @ 1005: uvm_test_top.env.sbd [axi_sbd]            9 Writing at addr = 008dd699, data = 0000000000004300
UVM_INFO axi_sbd_byte.sv(23) @ 1005: uvm_test_top.env.sbd [axi_sbd]           10 Writing at addr = 008dd69a, data = 0000000000e20000
UVM_INFO axi_drv.sv(47) @ 1015: uvm_test_top.env.m_agent.drv [axi_drv] Driving tx
UVM_INFO axi_responder.sv(57) @ 1025: uvm_test_top.env.s_agent.responder [AWSIZE_DEBUG] Captured awsize = 1, tx.burst_size = 1, vif.bursts_size = 1 from interface
UVM_INFO axi_tx.sv(90) @ 1025: reporter@@wr_tx [AXI_TX WRAP CALC]  addr = a203cc50
UVM_INFO axi_tx.sv(91) @ 1025: reporter@@wr_tx [AXI_TX WRAP CALC]  wrap_lower_addr = a203cc3c 
UVM_INFO axi_tx.sv(92) @ 1025: reporter@@wr_tx [AXI_TX WRAP CALC]  wrap_upper_addr = a203cc55 
UVM_INFO axi_drv.sv(111) @ 1045: uvm_test_top.env.m_agent.drv [DRV_DATA] ................... data_ref = 0000000000007c55, wstrb_t = 00000011, strb_pos=0, addr = a203cc50 
UVM_INFO axi_responder.sv(77) @ 1045: uvm_test_top.env.s_agent.responder [axi_responder] DATA at responder awsize = 1, addr = a203cc50, data = 0000000000007c55, strb = 00000011
UVM_INFO axi_responder.sv(88) @ 1045: uvm_test_top.env.s_agent.responder [axi_responder] Writing at addr = a203cc50, data = 0000000000007c55, strb = 00000011
UVM_INFO axi_drv.sv(111) @ 1055: uvm_test_top.env.m_agent.drv [DRV_DATA] ................... data_ref = 00000000d7400000, wstrb_t = 00001100, strb_pos=2, addr = a203cc52 
UVM_INFO axi_responder.sv(77) @ 1055: uvm_test_top.env.s_agent.responder [axi_responder] DATA at responder awsize = 1, addr = a203cc52, data = 00000000d7400000, strb = 00001100
UVM_INFO axi_responder.sv(88) @ 1055: uvm_test_top.env.s_agent.responder [axi_responder] Writing at addr = a203cc52, data = 00000000d7400000, strb = 00001100
UVM_INFO axi_drv.sv(111) @ 1065: uvm_test_top.env.m_agent.drv [DRV_DATA] ................... data_ref = 0000f3b100000000, wstrb_t = 00110000, strb_pos=4, addr = a203cc54 
UVM_INFO axi_responder.sv(77) @ 1065: uvm_test_top.env.s_agent.responder [axi_responder] DATA at responder awsize = 1, addr = a203cc54, data = 0000f3b100000000, strb = 00110000
UVM_INFO axi_responder.sv(88) @ 1065: uvm_test_top.env.s_agent.responder [axi_responder] Writing at addr = a203cc54, data = 0000f3b100000000, strb = 00110000
UVM_INFO axi_drv.sv(111) @ 1075: uvm_test_top.env.m_agent.drv [DRV_DATA] ................... data_ref = 2ac6000000000000, wstrb_t = 11000000, strb_pos=6, addr = a203cc56 
UVM_INFO axi_responder.sv(77) @ 1075: uvm_test_top.env.s_agent.responder [axi_responder] DATA at responder awsize = 1, addr = a203cc3c, data = 2ac6000000000000, strb = 11000000
UVM_INFO axi_responder.sv(88) @ 1075: uvm_test_top.env.s_agent.responder [axi_responder] Writing at addr = a203cc3c, data = 2ac6000000000000, strb = 11000000
UVM_INFO axi_drv.sv(111) @ 1085: uvm_test_top.env.m_agent.drv [DRV_DATA] ................... data_ref = 000000000000f1b6, wstrb_t = 00000011, strb_pos=0, addr = a203cc58 
UVM_INFO axi_responder.sv(77) @ 1085: uvm_test_top.env.s_agent.responder [axi_responder] DATA at responder awsize = 1, addr = a203cc3e, data = 000000000000f1b6, strb = 00000011
UVM_INFO axi_responder.sv(88) @ 1085: uvm_test_top.env.s_agent.responder [axi_responder] Writing at addr = a203cc3e, data = 000000000000f1b6, strb = 00000011
UVM_INFO axi_drv.sv(111) @ 1095: uvm_test_top.env.m_agent.drv [DRV_DATA] ................... data_ref = 00000000fdf10000, wstrb_t = 00001100, strb_pos=2, addr = a203cc5a 
UVM_INFO axi_responder.sv(77) @ 1095: uvm_test_top.env.s_agent.responder [axi_responder] DATA at responder awsize = 1, addr = a203cc40, data = 00000000fdf10000, strb = 00001100
UVM_INFO axi_responder.sv(88) @ 1095: uvm_test_top.env.s_agent.responder [axi_responder] Writing at addr = a203cc40, data = 00000000fdf10000, strb = 00001100
UVM_INFO axi_drv.sv(111) @ 1105: uvm_test_top.env.m_agent.drv [DRV_DATA] ................... data_ref = 00005f1300000000, wstrb_t = 00110000, strb_pos=4, addr = a203cc5c 
UVM_INFO axi_responder.sv(77) @ 1105: uvm_test_top.env.s_agent.responder [axi_responder] DATA at responder awsize = 1, addr = a203cc42, data = 00005f1300000000, strb = 00110000
UVM_INFO axi_responder.sv(88) @ 1105: uvm_test_top.env.s_agent.responder [axi_responder] Writing at addr = a203cc42, data = 00005f1300000000, strb = 00110000
UVM_INFO axi_drv.sv(111) @ 1115: uvm_test_top.env.m_agent.drv [DRV_DATA] ................... data_ref = e817000000000000, wstrb_t = 11000000, strb_pos=6, addr = a203cc5e 
UVM_INFO axi_responder.sv(77) @ 1115: uvm_test_top.env.s_agent.responder [axi_responder] DATA at responder awsize = 1, addr = a203cc44, data = e817000000000000, strb = 11000000
UVM_INFO axi_responder.sv(88) @ 1115: uvm_test_top.env.s_agent.responder [axi_responder] Writing at addr = a203cc44, data = e817000000000000, strb = 11000000
UVM_INFO axi_drv.sv(111) @ 1125: uvm_test_top.env.m_agent.drv [DRV_DATA] ................... data_ref = 000000000000ad93, wstrb_t = 00000011, strb_pos=0, addr = a203cc60 
UVM_INFO axi_responder.sv(77) @ 1125: uvm_test_top.env.s_agent.responder [axi_responder] DATA at responder awsize = 1, addr = a203cc46, data = 000000000000ad93, strb = 00000011
UVM_INFO axi_responder.sv(88) @ 1125: uvm_test_top.env.s_agent.responder [axi_responder] Writing at addr = a203cc46, data = 000000000000ad93, strb = 00000011
UVM_INFO axi_drv.sv(111) @ 1135: uvm_test_top.env.m_agent.drv [DRV_DATA] ................... data_ref = 00000000c32e0000, wstrb_t = 00001100, strb_pos=2, addr = a203cc62 
UVM_INFO axi_responder.sv(77) @ 1135: uvm_test_top.env.s_agent.responder [axi_responder] DATA at responder awsize = 1, addr = a203cc48, data = 00000000c32e0000, strb = 00001100
UVM_INFO axi_responder.sv(88) @ 1135: uvm_test_top.env.s_agent.responder [axi_responder] Writing at addr = a203cc48, data = 00000000c32e0000, strb = 00001100
UVM_INFO axi_drv.sv(111) @ 1145: uvm_test_top.env.m_agent.drv [DRV_DATA] ................... data_ref = 000060a800000000, wstrb_t = 00110000, strb_pos=4, addr = a203cc64 
UVM_INFO axi_responder.sv(77) @ 1145: uvm_test_top.env.s_agent.responder [axi_responder] DATA at responder awsize = 1, addr = a203cc4a, data = 000060a800000000, strb = 00110000
UVM_INFO axi_responder.sv(88) @ 1145: uvm_test_top.env.s_agent.responder [axi_responder] Writing at addr = a203cc4a, data = 000060a800000000, strb = 00110000
UVM_INFO axi_drv.sv(111) @ 1155: uvm_test_top.env.m_agent.drv [DRV_DATA] ................... data_ref = 8a89000000000000, wstrb_t = 11000000, strb_pos=6, addr = a203cc66 
UVM_INFO axi_responder.sv(77) @ 1155: uvm_test_top.env.s_agent.responder [axi_responder] DATA at responder awsize = 1, addr = a203cc4c, data = 8a89000000000000, strb = 11000000
UVM_INFO axi_responder.sv(88) @ 1155: uvm_test_top.env.s_agent.responder [axi_responder] Writing at addr = a203cc4c, data = 8a89000000000000, strb = 11000000
UVM_INFO axi_drv.sv(111) @ 1165: uvm_test_top.env.m_agent.drv [DRV_DATA] ................... data_ref = 0000000000000815, wstrb_t = 00000011, strb_pos=0, addr = a203cc68 
UVM_INFO axi_responder.sv(77) @ 1165: uvm_test_top.env.s_agent.responder [axi_responder] DATA at responder awsize = 1, addr = a203cc4e, data = 0000000000000815, strb = 00000011
UVM_INFO axi_responder.sv(88) @ 1165: uvm_test_top.env.s_agent.responder [axi_responder] Writing at addr = a203cc4e, data = 0000000000000815, strb = 00000011
UVM_INFO axi_sbd_byte.sv(23) @ 1185: uvm_test_top.env.sbd [axi_sbd]            0 Writing at addr = a203cc50, data = 0000000000007c55
UVM_INFO axi_sbd_byte.sv(23) @ 1185: uvm_test_top.env.sbd [axi_sbd]            1 Writing at addr = a203cc52, data = 00000000d7400000
UVM_INFO axi_sbd_byte.sv(23) @ 1185: uvm_test_top.env.sbd [axi_sbd]            2 Writing at addr = a203cc54, data = 0000f3b100000000
UVM_INFO axi_sbd_byte.sv(23) @ 1185: uvm_test_top.env.sbd [axi_sbd]            3 Writing at addr = a203cc56, data = 2ac6000000000000
UVM_INFO axi_sbd_byte.sv(23) @ 1185: uvm_test_top.env.sbd [axi_sbd]            4 Writing at addr = a203cc58, data = 000000000000f1b6
UVM_INFO axi_sbd_byte.sv(23) @ 1185: uvm_test_top.env.sbd [axi_sbd]            5 Writing at addr = a203cc5a, data = 00000000fdf10000
UVM_INFO axi_sbd_byte.sv(23) @ 1185: uvm_test_top.env.sbd [axi_sbd]            6 Writing at addr = a203cc5c, data = 00005f1300000000
UVM_INFO axi_sbd_byte.sv(23) @ 1185: uvm_test_top.env.sbd [axi_sbd]            7 Writing at addr = a203cc5e, data = e817000000000000
UVM_INFO axi_sbd_byte.sv(23) @ 1185: uvm_test_top.env.sbd [axi_sbd]            8 Writing at addr = a203cc60, data = 000000000000ad93
UVM_INFO axi_sbd_byte.sv(23) @ 1185: uvm_test_top.env.sbd [axi_sbd]            9 Writing at addr = a203cc62, data = 00000000c32e0000
UVM_INFO axi_sbd_byte.sv(23) @ 1185: uvm_test_top.env.sbd [axi_sbd]           10 Writing at addr = a203cc64, data = 000060a800000000
UVM_INFO axi_sbd_byte.sv(23) @ 1185: uvm_test_top.env.sbd [axi_sbd]           11 Writing at addr = a203cc66, data = 8a89000000000000
UVM_INFO axi_sbd_byte.sv(23) @ 1185: uvm_test_top.env.sbd [axi_sbd]           12 Writing at addr = a203cc68, data = 0000000000000815
UVM_INFO axi_drv.sv(47) @ 1195: uvm_test_top.env.m_agent.drv [axi_drv] Driving tx
UVM_INFO axi_responder.sv(57) @ 1205: uvm_test_top.env.s_agent.responder [AWSIZE_DEBUG] Captured awsize = 1, tx.burst_size = 1, vif.bursts_size = 1 from interface
UVM_INFO axi_tx.sv(90) @ 1205: reporter@@wr_tx [AXI_TX WRAP CALC]  addr = eb17d6c8
UVM_INFO axi_tx.sv(91) @ 1205: reporter@@wr_tx [AXI_TX WRAP CALC]  wrap_lower_addr = eb17d6c0 
UVM_INFO axi_tx.sv(92) @ 1205: reporter@@wr_tx [AXI_TX WRAP CALC]  wrap_upper_addr = eb17d6df 
UVM_INFO axi_drv.sv(111) @ 1225: uvm_test_top.env.m_agent.drv [DRV_DATA] ................... data_ref = 0000000000009f05, wstrb_t = 00000011, strb_pos=0, addr = eb17d6c8 
UVM_INFO axi_responder.sv(77) @ 1225: uvm_test_top.env.s_agent.responder [axi_responder] DATA at responder awsize = 1, addr = eb17d6c8, data = 0000000000009f05, strb = 00000011
UVM_INFO axi_responder.sv(88) @ 1225: uvm_test_top.env.s_agent.responder [axi_responder] Writing at addr = eb17d6c8, data = 0000000000009f05, strb = 00000011
UVM_INFO axi_drv.sv(111) @ 1235: uvm_test_top.env.m_agent.drv [DRV_DATA] ................... data_ref = 0000000052860000, wstrb_t = 00001100, strb_pos=2, addr = eb17d6ca 
UVM_INFO axi_responder.sv(77) @ 1235: uvm_test_top.env.s_agent.responder [axi_responder] DATA at responder awsize = 1, addr = eb17d6ca, data = 0000000052860000, strb = 00001100
UVM_INFO axi_responder.sv(88) @ 1235: uvm_test_top.env.s_agent.responder [axi_responder] Writing at addr = eb17d6ca, data = 0000000052860000, strb = 00001100
UVM_INFO axi_drv.sv(111) @ 1245: uvm_test_top.env.m_agent.drv [DRV_DATA] ................... data_ref = 0000453300000000, wstrb_t = 00110000, strb_pos=4, addr = eb17d6cc 
UVM_INFO axi_responder.sv(77) @ 1245: uvm_test_top.env.s_agent.responder [axi_responder] DATA at responder awsize = 1, addr = eb17d6cc, data = 0000453300000000, strb = 00110000
UVM_INFO axi_responder.sv(88) @ 1245: uvm_test_top.env.s_agent.responder [axi_responder] Writing at addr = eb17d6cc, data = 0000453300000000, strb = 00110000
UVM_INFO axi_drv.sv(111) @ 1255: uvm_test_top.env.m_agent.drv [DRV_DATA] ................... data_ref = 6234000000000000, wstrb_t = 11000000, strb_pos=6, addr = eb17d6ce 
UVM_INFO axi_responder.sv(77) @ 1255: uvm_test_top.env.s_agent.responder [axi_responder] DATA at responder awsize = 1, addr = eb17d6ce, data = 6234000000000000, strb = 11000000
UVM_INFO axi_responder.sv(88) @ 1255: uvm_test_top.env.s_agent.responder [axi_responder] Writing at addr = eb17d6ce, data = 6234000000000000, strb = 11000000
UVM_INFO axi_drv.sv(111) @ 1265: uvm_test_top.env.m_agent.drv [DRV_DATA] ................... data_ref = 000000000000b58f, wstrb_t = 00000011, strb_pos=0, addr = eb17d6d0 
UVM_INFO axi_responder.sv(77) @ 1265: uvm_test_top.env.s_agent.responder [axi_responder] DATA at responder awsize = 1, addr = eb17d6d0, data = 000000000000b58f, strb = 00000011
UVM_INFO axi_responder.sv(88) @ 1265: uvm_test_top.env.s_agent.responder [axi_responder] Writing at addr = eb17d6d0, data = 000000000000b58f, strb = 00000011
UVM_INFO axi_drv.sv(111) @ 1275: uvm_test_top.env.m_agent.drv [DRV_DATA] ................... data_ref = 00000000be250000, wstrb_t = 00001100, strb_pos=2, addr = eb17d6d2 
UVM_INFO axi_responder.sv(77) @ 1275: uvm_test_top.env.s_agent.responder [axi_responder] DATA at responder awsize = 1, addr = eb17d6d2, data = 00000000be250000, strb = 00001100
UVM_INFO axi_responder.sv(88) @ 1275: uvm_test_top.env.s_agent.responder [axi_responder] Writing at addr = eb17d6d2, data = 00000000be250000, strb = 00001100
UVM_INFO axi_drv.sv(111) @ 1285: uvm_test_top.env.m_agent.drv [DRV_DATA] ................... data_ref = 000001d300000000, wstrb_t = 00110000, strb_pos=4, addr = eb17d6d4 
UVM_INFO axi_responder.sv(77) @ 1285: uvm_test_top.env.s_agent.responder [axi_responder] DATA at responder awsize = 1, addr = eb17d6d4, data = 000001d300000000, strb = 00110000
UVM_INFO axi_responder.sv(88) @ 1285: uvm_test_top.env.s_agent.responder [axi_responder] Writing at addr = eb17d6d4, data = 000001d300000000, strb = 00110000
UVM_INFO axi_drv.sv(111) @ 1295: uvm_test_top.env.m_agent.drv [DRV_DATA] ................... data_ref = a10b000000000000, wstrb_t = 11000000, strb_pos=6, addr = eb17d6d6 
UVM_INFO axi_responder.sv(77) @ 1295: uvm_test_top.env.s_agent.responder [axi_responder] DATA at responder awsize = 1, addr = eb17d6d6, data = a10b000000000000, strb = 11000000
UVM_INFO axi_responder.sv(88) @ 1295: uvm_test_top.env.s_agent.responder [axi_responder] Writing at addr = eb17d6d6, data = a10b000000000000, strb = 11000000
UVM_INFO axi_drv.sv(111) @ 1305: uvm_test_top.env.m_agent.drv [DRV_DATA] ................... data_ref = 000000000000a725, wstrb_t = 00000011, strb_pos=0, addr = eb17d6d8 
UVM_INFO axi_responder.sv(77) @ 1305: uvm_test_top.env.s_agent.responder [axi_responder] DATA at responder awsize = 1, addr = eb17d6d8, data = 000000000000a725, strb = 00000011
UVM_INFO axi_responder.sv(88) @ 1305: uvm_test_top.env.s_agent.responder [axi_responder] Writing at addr = eb17d6d8, data = 000000000000a725, strb = 00000011
UVM_INFO axi_drv.sv(111) @ 1315: uvm_test_top.env.m_agent.drv [DRV_DATA] ................... data_ref = 000000006ef60000, wstrb_t = 00001100, strb_pos=2, addr = eb17d6da 
UVM_INFO axi_responder.sv(77) @ 1315: uvm_test_top.env.s_agent.responder [axi_responder] DATA at responder awsize = 1, addr = eb17d6da, data = 000000006ef60000, strb = 00001100
UVM_INFO axi_responder.sv(88) @ 1315: uvm_test_top.env.s_agent.responder [axi_responder] Writing at addr = eb17d6da, data = 000000006ef60000, strb = 00001100
UVM_INFO axi_drv.sv(111) @ 1325: uvm_test_top.env.m_agent.drv [DRV_DATA] ................... data_ref = 0000d0c700000000, wstrb_t = 00110000, strb_pos=4, addr = eb17d6dc 
UVM_INFO axi_responder.sv(77) @ 1325: uvm_test_top.env.s_agent.responder [axi_responder] DATA at responder awsize = 1, addr = eb17d6dc, data = 0000d0c700000000, strb = 00110000
UVM_INFO axi_responder.sv(88) @ 1325: uvm_test_top.env.s_agent.responder [axi_responder] Writing at addr = eb17d6dc, data = 0000d0c700000000, strb = 00110000
UVM_INFO axi_drv.sv(111) @ 1335: uvm_test_top.env.m_agent.drv [DRV_DATA] ................... data_ref = 477b000000000000, wstrb_t = 11000000, strb_pos=6, addr = eb17d6de 
UVM_INFO axi_responder.sv(77) @ 1335: uvm_test_top.env.s_agent.responder [axi_responder] DATA at responder awsize = 1, addr = eb17d6de, data = 477b000000000000, strb = 11000000
UVM_INFO axi_responder.sv(88) @ 1335: uvm_test_top.env.s_agent.responder [axi_responder] Writing at addr = eb17d6de, data = 477b000000000000, strb = 11000000
UVM_INFO axi_drv.sv(111) @ 1345: uvm_test_top.env.m_agent.drv [DRV_DATA] ................... data_ref = 000000000000ba8a, wstrb_t = 00000011, strb_pos=0, addr = eb17d6e0 
UVM_INFO axi_responder.sv(77) @ 1345: uvm_test_top.env.s_agent.responder [axi_responder] DATA at responder awsize = 1, addr = eb17d6c0, data = 000000000000ba8a, strb = 00000011
UVM_INFO axi_responder.sv(88) @ 1345: uvm_test_top.env.s_agent.responder [axi_responder] Writing at addr = eb17d6c0, data = 000000000000ba8a, strb = 00000011
UVM_INFO axi_drv.sv(111) @ 1355: uvm_test_top.env.m_agent.drv [DRV_DATA] ................... data_ref = 0000000075ea0000, wstrb_t = 00001100, strb_pos=2, addr = eb17d6e2 
UVM_INFO axi_responder.sv(77) @ 1355: uvm_test_top.env.s_agent.responder [axi_responder] DATA at responder awsize = 1, addr = eb17d6c2, data = 0000000075ea0000, strb = 00001100
UVM_INFO axi_responder.sv(88) @ 1355: uvm_test_top.env.s_agent.responder [axi_responder] Writing at addr = eb17d6c2, data = 0000000075ea0000, strb = 00001100
UVM_INFO axi_drv.sv(111) @ 1365: uvm_test_top.env.m_agent.drv [DRV_DATA] ................... data_ref = 000074b300000000, wstrb_t = 00110000, strb_pos=4, addr = eb17d6e4 
UVM_INFO axi_responder.sv(77) @ 1365: uvm_test_top.env.s_agent.responder [axi_responder] DATA at responder awsize = 1, addr = eb17d6c4, data = 000074b300000000, strb = 00110000
UVM_INFO axi_responder.sv(88) @ 1365: uvm_test_top.env.s_agent.responder [axi_responder] Writing at addr = eb17d6c4, data = 000074b300000000, strb = 00110000
UVM_INFO axi_drv.sv(111) @ 1375: uvm_test_top.env.m_agent.drv [DRV_DATA] ................... data_ref = 9ef1000000000000, wstrb_t = 11000000, strb_pos=6, addr = eb17d6e6 
UVM_INFO axi_responder.sv(77) @ 1375: uvm_test_top.env.s_agent.responder [axi_responder] DATA at responder awsize = 1, addr = eb17d6c6, data = 9ef1000000000000, strb = 11000000
UVM_INFO axi_responder.sv(88) @ 1375: uvm_test_top.env.s_agent.responder [axi_responder] Writing at addr = eb17d6c6, data = 9ef1000000000000, strb = 11000000
UVM_INFO axi_sbd_byte.sv(23) @ 1395: uvm_test_top.env.sbd [axi_sbd]            0 Writing at addr = eb17d6c8, data = 0000000000009f05
UVM_INFO axi_sbd_byte.sv(23) @ 1395: uvm_test_top.env.sbd [axi_sbd]            1 Writing at addr = eb17d6ca, data = 0000000052860000
UVM_INFO axi_sbd_byte.sv(23) @ 1395: uvm_test_top.env.sbd [axi_sbd]            2 Writing at addr = eb17d6cc, data = 0000453300000000
UVM_INFO axi_sbd_byte.sv(23) @ 1395: uvm_test_top.env.sbd [axi_sbd]            3 Writing at addr = eb17d6ce, data = 6234000000000000
UVM_INFO axi_sbd_byte.sv(23) @ 1395: uvm_test_top.env.sbd [axi_sbd]            4 Writing at addr = eb17d6d0, data = 000000000000b58f
UVM_INFO axi_sbd_byte.sv(23) @ 1395: uvm_test_top.env.sbd [axi_sbd]            5 Writing at addr = eb17d6d2, data = 00000000be250000
UVM_INFO axi_sbd_byte.sv(23) @ 1395: uvm_test_top.env.sbd [axi_sbd]            6 Writing at addr = eb17d6d4, data = 000001d300000000
UVM_INFO axi_sbd_byte.sv(23) @ 1395: uvm_test_top.env.sbd [axi_sbd]            7 Writing at addr = eb17d6d6, data = a10b000000000000
UVM_INFO axi_sbd_byte.sv(23) @ 1395: uvm_test_top.env.sbd [axi_sbd]            8 Writing at addr = eb17d6d8, data = 000000000000a725
UVM_INFO axi_sbd_byte.sv(23) @ 1395: uvm_test_top.env.sbd [axi_sbd]            9 Writing at addr = eb17d6da, data = 000000006ef60000
UVM_INFO axi_sbd_byte.sv(23) @ 1395: uvm_test_top.env.sbd [axi_sbd]           10 Writing at addr = eb17d6dc, data = 0000d0c700000000
UVM_INFO axi_sbd_byte.sv(23) @ 1395: uvm_test_top.env.sbd [axi_sbd]           11 Writing at addr = eb17d6de, data = 477b000000000000
UVM_INFO axi_sbd_byte.sv(23) @ 1395: uvm_test_top.env.sbd [axi_sbd]           12 Writing at addr = eb17d6e0, data = 000000000000ba8a
UVM_INFO axi_sbd_byte.sv(23) @ 1395: uvm_test_top.env.sbd [axi_sbd]           13 Writing at addr = eb17d6e2, data = 0000000075ea0000
UVM_INFO axi_sbd_byte.sv(23) @ 1395: uvm_test_top.env.sbd [axi_sbd]           14 Writing at addr = eb17d6e4, data = 000074b300000000
UVM_INFO axi_sbd_byte.sv(23) @ 1395: uvm_test_top.env.sbd [axi_sbd]           15 Writing at addr = eb17d6e6, data = 9ef1000000000000
UVM_INFO axi_drv.sv(47) @ 1405: uvm_test_top.env.m_agent.drv [axi_drv] Driving tx
UVM_INFO axi_responder.sv(57) @ 1415: uvm_test_top.env.s_agent.responder [AWSIZE_DEBUG] Captured awsize = 1, tx.burst_size = 1, vif.bursts_size = 1 from interface
UVM_INFO axi_tx.sv(90) @ 1415: reporter@@wr_tx [AXI_TX WRAP CALC]  addr = e1fce036
UVM_INFO axi_tx.sv(91) @ 1415: reporter@@wr_tx [AXI_TX WRAP CALC]  wrap_lower_addr = e1fce020 
UVM_INFO axi_tx.sv(92) @ 1415: reporter@@wr_tx [AXI_TX WRAP CALC]  wrap_upper_addr = e1fce03f 
UVM_INFO axi_drv.sv(111) @ 1435: uvm_test_top.env.m_agent.drv [DRV_DATA] ................... data_ref = 243f000000000000, wstrb_t = 11000000, strb_pos=6, addr = e1fce036 
UVM_INFO axi_responder.sv(77) @ 1435: uvm_test_top.env.s_agent.responder [axi_responder] DATA at responder awsize = 1, addr = e1fce036, data = 243f000000000000, strb = 11000000
UVM_INFO axi_responder.sv(88) @ 1435: uvm_test_top.env.s_agent.responder [axi_responder] Writing at addr = e1fce036, data = 243f000000000000, strb = 11000000
UVM_INFO axi_drv.sv(111) @ 1445: uvm_test_top.env.m_agent.drv [DRV_DATA] ................... data_ref = 000000000000422e, wstrb_t = 00000011, strb_pos=0, addr = e1fce038 
UVM_INFO axi_responder.sv(77) @ 1445: uvm_test_top.env.s_agent.responder [axi_responder] DATA at responder awsize = 1, addr = e1fce038, data = 000000000000422e, strb = 00000011
UVM_INFO axi_responder.sv(88) @ 1445: uvm_test_top.env.s_agent.responder [axi_responder] Writing at addr = e1fce038, data = 000000000000422e, strb = 00000011
UVM_INFO axi_drv.sv(111) @ 1455: uvm_test_top.env.m_agent.drv [DRV_DATA] ................... data_ref = 00000000bbb00000, wstrb_t = 00001100, strb_pos=2, addr = e1fce03a 
UVM_INFO axi_responder.sv(77) @ 1455: uvm_test_top.env.s_agent.responder [axi_responder] DATA at responder awsize = 1, addr = e1fce03a, data = 00000000bbb00000, strb = 00001100
UVM_INFO axi_responder.sv(88) @ 1455: uvm_test_top.env.s_agent.responder [axi_responder] Writing at addr = e1fce03a, data = 00000000bbb00000, strb = 00001100
UVM_INFO axi_drv.sv(111) @ 1465: uvm_test_top.env.m_agent.drv [DRV_DATA] ................... data_ref = 0000319100000000, wstrb_t = 00110000, strb_pos=4, addr = e1fce03c 
UVM_INFO axi_responder.sv(77) @ 1465: uvm_test_top.env.s_agent.responder [axi_responder] DATA at responder awsize = 1, addr = e1fce03c, data = 0000319100000000, strb = 00110000
UVM_INFO axi_responder.sv(88) @ 1465: uvm_test_top.env.s_agent.responder [axi_responder] Writing at addr = e1fce03c, data = 0000319100000000, strb = 00110000
UVM_INFO axi_drv.sv(111) @ 1475: uvm_test_top.env.m_agent.drv [DRV_DATA] ................... data_ref = 2728000000000000, wstrb_t = 11000000, strb_pos=6, addr = e1fce03e 
UVM_INFO axi_responder.sv(77) @ 1475: uvm_test_top.env.s_agent.responder [axi_responder] DATA at responder awsize = 1, addr = e1fce03e, data = 2728000000000000, strb = 11000000
UVM_INFO axi_responder.sv(88) @ 1475: uvm_test_top.env.s_agent.responder [axi_responder] Writing at addr = e1fce03e, data = 2728000000000000, strb = 11000000
UVM_INFO axi_drv.sv(111) @ 1485: uvm_test_top.env.m_agent.drv [DRV_DATA] ................... data_ref = 000000000000c4d3, wstrb_t = 00000011, strb_pos=0, addr = e1fce040 
UVM_INFO axi_responder.sv(77) @ 1485: uvm_test_top.env.s_agent.responder [axi_responder] DATA at responder awsize = 1, addr = e1fce020, data = 000000000000c4d3, strb = 00000011
UVM_INFO axi_responder.sv(88) @ 1485: uvm_test_top.env.s_agent.responder [axi_responder] Writing at addr = e1fce020, data = 000000000000c4d3, strb = 00000011
UVM_INFO axi_drv.sv(111) @ 1495: uvm_test_top.env.m_agent.drv [DRV_DATA] ................... data_ref = 0000000026750000, wstrb_t = 00001100, strb_pos=2, addr = e1fce042 
UVM_INFO axi_responder.sv(77) @ 1495: uvm_test_top.env.s_agent.responder [axi_responder] DATA at responder awsize = 1, addr = e1fce022, data = 0000000026750000, strb = 00001100
UVM_INFO axi_responder.sv(88) @ 1495: uvm_test_top.env.s_agent.responder [axi_responder] Writing at addr = e1fce022, data = 0000000026750000, strb = 00001100
UVM_INFO axi_drv.sv(111) @ 1505: uvm_test_top.env.m_agent.drv [DRV_DATA] ................... data_ref = 0000554700000000, wstrb_t = 00110000, strb_pos=4, addr = e1fce044 
UVM_INFO axi_responder.sv(77) @ 1505: uvm_test_top.env.s_agent.responder [axi_responder] DATA at responder awsize = 1, addr = e1fce024, data = 0000554700000000, strb = 00110000
UVM_INFO axi_responder.sv(88) @ 1505: uvm_test_top.env.s_agent.responder [axi_responder] Writing at addr = e1fce024, data = 0000554700000000, strb = 00110000
UVM_INFO axi_drv.sv(111) @ 1515: uvm_test_top.env.m_agent.drv [DRV_DATA] ................... data_ref = 43a9000000000000, wstrb_t = 11000000, strb_pos=6, addr = e1fce046 
UVM_INFO axi_responder.sv(77) @ 1515: uvm_test_top.env.s_agent.responder [axi_responder] DATA at responder awsize = 1, addr = e1fce026, data = 43a9000000000000, strb = 11000000
UVM_INFO axi_responder.sv(88) @ 1515: uvm_test_top.env.s_agent.responder [axi_responder] Writing at addr = e1fce026, data = 43a9000000000000, strb = 11000000
UVM_INFO axi_drv.sv(111) @ 1525: uvm_test_top.env.m_agent.drv [DRV_DATA] ................... data_ref = 000000000000fda8, wstrb_t = 00000011, strb_pos=0, addr = e1fce048 
UVM_INFO axi_responder.sv(77) @ 1525: uvm_test_top.env.s_agent.responder [axi_responder] DATA at responder awsize = 1, addr = e1fce028, data = 000000000000fda8, strb = 00000011
UVM_INFO axi_responder.sv(88) @ 1525: uvm_test_top.env.s_agent.responder [axi_responder] Writing at addr = e1fce028, data = 000000000000fda8, strb = 00000011
UVM_INFO axi_drv.sv(111) @ 1535: uvm_test_top.env.m_agent.drv [DRV_DATA] ................... data_ref = 0000000005730000, wstrb_t = 00001100, strb_pos=2, addr = e1fce04a 
UVM_INFO axi_responder.sv(77) @ 1535: uvm_test_top.env.s_agent.responder [axi_responder] DATA at responder awsize = 1, addr = e1fce02a, data = 0000000005730000, strb = 00001100
UVM_INFO axi_responder.sv(88) @ 1535: uvm_test_top.env.s_agent.responder [axi_responder] Writing at addr = e1fce02a, data = 0000000005730000, strb = 00001100
UVM_INFO axi_drv.sv(111) @ 1545: uvm_test_top.env.m_agent.drv [DRV_DATA] ................... data_ref = 000063a000000000, wstrb_t = 00110000, strb_pos=4, addr = e1fce04c 
UVM_INFO axi_responder.sv(77) @ 1545: uvm_test_top.env.s_agent.responder [axi_responder] DATA at responder awsize = 1, addr = e1fce02c, data = 000063a000000000, strb = 00110000
UVM_INFO axi_responder.sv(88) @ 1545: uvm_test_top.env.s_agent.responder [axi_responder] Writing at addr = e1fce02c, data = 000063a000000000, strb = 00110000
UVM_INFO axi_drv.sv(111) @ 1555: uvm_test_top.env.m_agent.drv [DRV_DATA] ................... data_ref = d38e000000000000, wstrb_t = 11000000, strb_pos=6, addr = e1fce04e 
UVM_INFO axi_responder.sv(77) @ 1555: uvm_test_top.env.s_agent.responder [axi_responder] DATA at responder awsize = 1, addr = e1fce02e, data = d38e000000000000, strb = 11000000
UVM_INFO axi_responder.sv(88) @ 1555: uvm_test_top.env.s_agent.responder [axi_responder] Writing at addr = e1fce02e, data = d38e000000000000, strb = 11000000
UVM_INFO axi_drv.sv(111) @ 1565: uvm_test_top.env.m_agent.drv [DRV_DATA] ................... data_ref = 0000000000006c76, wstrb_t = 00000011, strb_pos=0, addr = e1fce050 
UVM_INFO axi_responder.sv(77) @ 1565: uvm_test_top.env.s_agent.responder [axi_responder] DATA at responder awsize = 1, addr = e1fce030, data = 0000000000006c76, strb = 00000011
UVM_INFO axi_responder.sv(88) @ 1565: uvm_test_top.env.s_agent.responder [axi_responder] Writing at addr = e1fce030, data = 0000000000006c76, strb = 00000011
UVM_INFO axi_drv.sv(111) @ 1575: uvm_test_top.env.m_agent.drv [DRV_DATA] ................... data_ref = 0000000024190000, wstrb_t = 00001100, strb_pos=2, addr = e1fce052 
UVM_INFO axi_responder.sv(77) @ 1575: uvm_test_top.env.s_agent.responder [axi_responder] DATA at responder awsize = 1, addr = e1fce032, data = 0000000024190000, strb = 00001100
UVM_INFO axi_responder.sv(88) @ 1575: uvm_test_top.env.s_agent.responder [axi_responder] Writing at addr = e1fce032, data = 0000000024190000, strb = 00001100
UVM_INFO axi_drv.sv(111) @ 1585: uvm_test_top.env.m_agent.drv [DRV_DATA] ................... data_ref = 0000699a00000000, wstrb_t = 00110000, strb_pos=4, addr = e1fce054 
UVM_INFO axi_responder.sv(77) @ 1585: uvm_test_top.env.s_agent.responder [axi_responder] DATA at responder awsize = 1, addr = e1fce034, data = 0000699a00000000, strb = 00110000
UVM_INFO axi_responder.sv(88) @ 1585: uvm_test_top.env.s_agent.responder [axi_responder] Writing at addr = e1fce034, data = 0000699a00000000, strb = 00110000
UVM_INFO axi_sbd_byte.sv(23) @ 1605: uvm_test_top.env.sbd [axi_sbd]            0 Writing at addr = e1fce036, data = 243f000000000000
UVM_INFO axi_sbd_byte.sv(23) @ 1605: uvm_test_top.env.sbd [axi_sbd]            1 Writing at addr = e1fce038, data = 000000000000422e
UVM_INFO axi_sbd_byte.sv(23) @ 1605: uvm_test_top.env.sbd [axi_sbd]            2 Writing at addr = e1fce03a, data = 00000000bbb00000
UVM_INFO axi_sbd_byte.sv(23) @ 1605: uvm_test_top.env.sbd [axi_sbd]            3 Writing at addr = e1fce03c, data = 0000319100000000
UVM_INFO axi_sbd_byte.sv(23) @ 1605: uvm_test_top.env.sbd [axi_sbd]            4 Writing at addr = e1fce03e, data = 2728000000000000
UVM_INFO axi_sbd_byte.sv(23) @ 1605: uvm_test_top.env.sbd [axi_sbd]            5 Writing at addr = e1fce040, data = 000000000000c4d3
UVM_INFO axi_sbd_byte.sv(23) @ 1605: uvm_test_top.env.sbd [axi_sbd]            6 Writing at addr = e1fce042, data = 0000000026750000
UVM_INFO axi_sbd_byte.sv(23) @ 1605: uvm_test_top.env.sbd [axi_sbd]            7 Writing at addr = e1fce044, data = 0000554700000000
UVM_INFO axi_sbd_byte.sv(23) @ 1605: uvm_test_top.env.sbd [axi_sbd]            8 Writing at addr = e1fce046, data = 43a9000000000000
UVM_INFO axi_sbd_byte.sv(23) @ 1605: uvm_test_top.env.sbd [axi_sbd]            9 Writing at addr = e1fce048, data = 000000000000fda8
UVM_INFO axi_sbd_byte.sv(23) @ 1605: uvm_test_top.env.sbd [axi_sbd]           10 Writing at addr = e1fce04a, data = 0000000005730000
UVM_INFO axi_sbd_byte.sv(23) @ 1605: uvm_test_top.env.sbd [axi_sbd]           11 Writing at addr = e1fce04c, data = 000063a000000000
UVM_INFO axi_sbd_byte.sv(23) @ 1605: uvm_test_top.env.sbd [axi_sbd]           12 Writing at addr = e1fce04e, data = d38e000000000000
UVM_INFO axi_sbd_byte.sv(23) @ 1605: uvm_test_top.env.sbd [axi_sbd]           13 Writing at addr = e1fce050, data = 0000000000006c76
UVM_INFO axi_sbd_byte.sv(23) @ 1605: uvm_test_top.env.sbd [axi_sbd]           14 Writing at addr = e1fce052, data = 0000000024190000
UVM_INFO axi_sbd_byte.sv(23) @ 1605: uvm_test_top.env.sbd [axi_sbd]           15 Writing at addr = e1fce054, data = 0000699a00000000
UVM_INFO axi_drv.sv(47) @ 1615: uvm_test_top.env.m_agent.drv [axi_drv] Driving tx
UVM_INFO axi_responder.sv(57) @ 1625: uvm_test_top.env.s_agent.responder [AWSIZE_DEBUG] Captured awsize = 1, tx.burst_size = 1, vif.bursts_size = 1 from interface
UVM_INFO axi_tx.sv(90) @ 1625: reporter@@wr_tx [AXI_TX WRAP CALC]  addr = ae5092aa
UVM_INFO axi_tx.sv(91) @ 1625: reporter@@wr_tx [AXI_TX WRAP CALC]  wrap_lower_addr = ae5092aa 
UVM_INFO axi_tx.sv(92) @ 1625: reporter@@wr_tx [AXI_TX WRAP CALC]  wrap_upper_addr = ae5092c3 
UVM_INFO axi_drv.sv(111) @ 1645: uvm_test_top.env.m_agent.drv [DRV_DATA] ................... data_ref = 00000000696e0000, wstrb_t = 00001100, strb_pos=2, addr = ae5092aa 
UVM_INFO axi_responder.sv(77) @ 1645: uvm_test_top.env.s_agent.responder [axi_responder] DATA at responder awsize = 1, addr = ae5092aa, data = 00000000696e0000, strb = 00001100
UVM_INFO axi_responder.sv(88) @ 1645: uvm_test_top.env.s_agent.responder [axi_responder] Writing at addr = ae5092aa, data = 00000000696e0000, strb = 00001100
UVM_INFO axi_drv.sv(111) @ 1655: uvm_test_top.env.m_agent.drv [DRV_DATA] ................... data_ref = 0000611500000000, wstrb_t = 00110000, strb_pos=4, addr = ae5092ac 
UVM_INFO axi_responder.sv(77) @ 1655: uvm_test_top.env.s_agent.responder [axi_responder] DATA at responder awsize = 1, addr = ae5092ac, data = 0000611500000000, strb = 00110000
UVM_INFO axi_responder.sv(88) @ 1655: uvm_test_top.env.s_agent.responder [axi_responder] Writing at addr = ae5092ac, data = 0000611500000000, strb = 00110000
UVM_INFO axi_drv.sv(111) @ 1665: uvm_test_top.env.m_agent.drv [DRV_DATA] ................... data_ref = 4f5a000000000000, wstrb_t = 11000000, strb_pos=6, addr = ae5092ae 
UVM_INFO axi_responder.sv(77) @ 1665: uvm_test_top.env.s_agent.responder [axi_responder] DATA at responder awsize = 1, addr = ae5092ae, data = 4f5a000000000000, strb = 11000000
UVM_INFO axi_responder.sv(88) @ 1665: uvm_test_top.env.s_agent.responder [axi_responder] Writing at addr = ae5092ae, data = 4f5a000000000000, strb = 11000000
UVM_INFO axi_drv.sv(111) @ 1675: uvm_test_top.env.m_agent.drv [DRV_DATA] ................... data_ref = 000000000000b9ff, wstrb_t = 00000011, strb_pos=0, addr = ae5092b0 
UVM_INFO axi_responder.sv(77) @ 1675: uvm_test_top.env.s_agent.responder [axi_responder] DATA at responder awsize = 1, addr = ae5092b0, data = 000000000000b9ff, strb = 00000011
UVM_INFO axi_responder.sv(88) @ 1675: uvm_test_top.env.s_agent.responder [axi_responder] Writing at addr = ae5092b0, data = 000000000000b9ff, strb = 00000011
UVM_INFO axi_drv.sv(111) @ 1685: uvm_test_top.env.m_agent.drv [DRV_DATA] ................... data_ref = 0000000032ac0000, wstrb_t = 00001100, strb_pos=2, addr = ae5092b2 
UVM_INFO axi_responder.sv(77) @ 1685: uvm_test_top.env.s_agent.responder [axi_responder] DATA at responder awsize = 1, addr = ae5092b2, data = 0000000032ac0000, strb = 00001100
UVM_INFO axi_responder.sv(88) @ 1685: uvm_test_top.env.s_agent.responder [axi_responder] Writing at addr = ae5092b2, data = 0000000032ac0000, strb = 00001100
UVM_INFO axi_drv.sv(111) @ 1695: uvm_test_top.env.m_agent.drv [DRV_DATA] ................... data_ref = 0000d75e00000000, wstrb_t = 00110000, strb_pos=4, addr = ae5092b4 
UVM_INFO axi_responder.sv(77) @ 1695: uvm_test_top.env.s_agent.responder [axi_responder] DATA at responder awsize = 1, addr = ae5092b4, data = 0000d75e00000000, strb = 00110000
UVM_INFO axi_responder.sv(88) @ 1695: uvm_test_top.env.s_agent.responder [axi_responder] Writing at addr = ae5092b4, data = 0000d75e00000000, strb = 00110000
UVM_INFO axi_drv.sv(111) @ 1705: uvm_test_top.env.m_agent.drv [DRV_DATA] ................... data_ref = cdf0000000000000, wstrb_t = 11000000, strb_pos=6, addr = ae5092b6 
UVM_INFO axi_responder.sv(77) @ 1705: uvm_test_top.env.s_agent.responder [axi_responder] DATA at responder awsize = 1, addr = ae5092b6, data = cdf0000000000000, strb = 11000000
UVM_INFO axi_responder.sv(88) @ 1705: uvm_test_top.env.s_agent.responder [axi_responder] Writing at addr = ae5092b6, data = cdf0000000000000, strb = 11000000
UVM_INFO axi_drv.sv(111) @ 1715: uvm_test_top.env.m_agent.drv [DRV_DATA] ................... data_ref = 0000000000005176, wstrb_t = 00000011, strb_pos=0, addr = ae5092b8 
UVM_INFO axi_responder.sv(77) @ 1715: uvm_test_top.env.s_agent.responder [axi_responder] DATA at responder awsize = 1, addr = ae5092b8, data = 0000000000005176, strb = 00000011
UVM_INFO axi_responder.sv(88) @ 1715: uvm_test_top.env.s_agent.responder [axi_responder] Writing at addr = ae5092b8, data = 0000000000005176, strb = 00000011
UVM_INFO axi_drv.sv(111) @ 1725: uvm_test_top.env.m_agent.drv [DRV_DATA] ................... data_ref = 000000008fa90000, wstrb_t = 00001100, strb_pos=2, addr = ae5092ba 
UVM_INFO axi_responder.sv(77) @ 1725: uvm_test_top.env.s_agent.responder [axi_responder] DATA at responder awsize = 1, addr = ae5092ba, data = 000000008fa90000, strb = 00001100
UVM_INFO axi_responder.sv(88) @ 1725: uvm_test_top.env.s_agent.responder [axi_responder] Writing at addr = ae5092ba, data = 000000008fa90000, strb = 00001100
UVM_INFO axi_drv.sv(111) @ 1735: uvm_test_top.env.m_agent.drv [DRV_DATA] ................... data_ref = 00003ba300000000, wstrb_t = 00110000, strb_pos=4, addr = ae5092bc 
UVM_INFO axi_responder.sv(77) @ 1735: uvm_test_top.env.s_agent.responder [axi_responder] DATA at responder awsize = 1, addr = ae5092bc, data = 00003ba300000000, strb = 00110000
UVM_INFO axi_responder.sv(88) @ 1735: uvm_test_top.env.s_agent.responder [axi_responder] Writing at addr = ae5092bc, data = 00003ba300000000, strb = 00110000
UVM_INFO axi_drv.sv(111) @ 1745: uvm_test_top.env.m_agent.drv [DRV_DATA] ................... data_ref = 5205000000000000, wstrb_t = 11000000, strb_pos=6, addr = ae5092be 
UVM_INFO axi_responder.sv(77) @ 1745: uvm_test_top.env.s_agent.responder [axi_responder] DATA at responder awsize = 1, addr = ae5092be, data = 5205000000000000, strb = 11000000
UVM_INFO axi_responder.sv(88) @ 1745: uvm_test_top.env.s_agent.responder [axi_responder] Writing at addr = ae5092be, data = 5205000000000000, strb = 11000000
UVM_INFO axi_drv.sv(111) @ 1755: uvm_test_top.env.m_agent.drv [DRV_DATA] ................... data_ref = 0000000000000f5f, wstrb_t = 00000011, strb_pos=0, addr = ae5092c0 
UVM_INFO axi_responder.sv(77) @ 1755: uvm_test_top.env.s_agent.responder [axi_responder] DATA at responder awsize = 1, addr = ae5092c0, data = 0000000000000f5f, strb = 00000011
UVM_INFO axi_responder.sv(88) @ 1755: uvm_test_top.env.s_agent.responder [axi_responder] Writing at addr = ae5092c0, data = 0000000000000f5f, strb = 00000011
UVM_INFO axi_drv.sv(111) @ 1765: uvm_test_top.env.m_agent.drv [DRV_DATA] ................... data_ref = 00000000df1a0000, wstrb_t = 00001100, strb_pos=2, addr = ae5092c2 
UVM_INFO axi_responder.sv(77) @ 1765: uvm_test_top.env.s_agent.responder [axi_responder] DATA at responder awsize = 1, addr = ae5092c2, data = 00000000df1a0000, strb = 00001100
UVM_INFO axi_responder.sv(88) @ 1765: uvm_test_top.env.s_agent.responder [axi_responder] Writing at addr = ae5092c2, data = 00000000df1a0000, strb = 00001100
UVM_INFO axi_sbd_byte.sv(23) @ 1785: uvm_test_top.env.sbd [axi_sbd]            0 Writing at addr = ae5092aa, data = 00000000696e0000
UVM_INFO axi_sbd_byte.sv(23) @ 1785: uvm_test_top.env.sbd [axi_sbd]            1 Writing at addr = ae5092ac, data = 0000611500000000
UVM_INFO axi_sbd_byte.sv(23) @ 1785: uvm_test_top.env.sbd [axi_sbd]            2 Writing at addr = ae5092ae, data = 4f5a000000000000
UVM_INFO axi_sbd_byte.sv(23) @ 1785: uvm_test_top.env.sbd [axi_sbd]            3 Writing at addr = ae5092b0, data = 000000000000b9ff
UVM_INFO axi_sbd_byte.sv(23) @ 1785: uvm_test_top.env.sbd [axi_sbd]            4 Writing at addr = ae5092b2, data = 0000000032ac0000
UVM_INFO axi_sbd_byte.sv(23) @ 1785: uvm_test_top.env.sbd [axi_sbd]            5 Writing at addr = ae5092b4, data = 0000d75e00000000
UVM_INFO axi_sbd_byte.sv(23) @ 1785: uvm_test_top.env.sbd [axi_sbd]            6 Writing at addr = ae5092b6, data = cdf0000000000000
UVM_INFO axi_sbd_byte.sv(23) @ 1785: uvm_test_top.env.sbd [axi_sbd]            7 Writing at addr = ae5092b8, data = 0000000000005176
UVM_INFO axi_sbd_byte.sv(23) @ 1785: uvm_test_top.env.sbd [axi_sbd]            8 Writing at addr = ae5092ba, data = 000000008fa90000
UVM_INFO axi_sbd_byte.sv(23) @ 1785: uvm_test_top.env.sbd [axi_sbd]            9 Writing at addr = ae5092bc, data = 00003ba300000000
UVM_INFO axi_sbd_byte.sv(23) @ 1785: uvm_test_top.env.sbd [axi_sbd]           10 Writing at addr = ae5092be, data = 5205000000000000
UVM_INFO axi_sbd_byte.sv(23) @ 1785: uvm_test_top.env.sbd [axi_sbd]           11 Writing at addr = ae5092c0, data = 0000000000000f5f
UVM_INFO axi_sbd_byte.sv(23) @ 1785: uvm_test_top.env.sbd [axi_sbd]           12 Writing at addr = ae5092c2, data = 00000000df1a0000
UVM_INFO axi_drv.sv(47) @ 1795: uvm_test_top.env.m_agent.drv [axi_drv] Driving tx
UVM_INFO axi_responder.sv(57) @ 1805: uvm_test_top.env.s_agent.responder [AWSIZE_DEBUG] Captured awsize = 2, tx.burst_size = 2, vif.bursts_size = 2 from interface
UVM_INFO axi_tx.sv(90) @ 1805: reporter@@wr_tx [AXI_TX WRAP CALC]  addr = 650a9534
UVM_INFO axi_tx.sv(91) @ 1805: reporter@@wr_tx [AXI_TX WRAP CALC]  wrap_lower_addr = 650a9530 
UVM_INFO axi_tx.sv(92) @ 1805: reporter@@wr_tx [AXI_TX WRAP CALC]  wrap_upper_addr = 650a953f 
UVM_INFO axi_drv.sv(111) @ 1825: uvm_test_top.env.m_agent.drv [DRV_DATA] ................... data_ref = 0d08bf6000000000, wstrb_t = 11110000, strb_pos=4, addr = 650a9534 
UVM_INFO axi_responder.sv(77) @ 1825: uvm_test_top.env.s_agent.responder [axi_responder] DATA at responder awsize = 2, addr = 650a9534, data = 0d08bf6000000000, strb = 11110000
UVM_INFO axi_responder.sv(88) @ 1825: uvm_test_top.env.s_agent.responder [axi_responder] Writing at addr = 650a9534, data = 0d08bf6000000000, strb = 11110000
UVM_INFO axi_drv.sv(111) @ 1835: uvm_test_top.env.m_agent.drv [DRV_DATA] ................... data_ref = 00000000e3d65c42, wstrb_t = 00001111, strb_pos=0, addr = 650a9538 
UVM_INFO axi_responder.sv(77) @ 1835: uvm_test_top.env.s_agent.responder [axi_responder] DATA at responder awsize = 2, addr = 650a9538, data = 00000000e3d65c42, strb = 00001111
UVM_INFO axi_responder.sv(88) @ 1835: uvm_test_top.env.s_agent.responder [axi_responder] Writing at addr = 650a9538, data = 00000000e3d65c42, strb = 00001111
UVM_INFO axi_drv.sv(111) @ 1845: uvm_test_top.env.m_agent.drv [DRV_DATA] ................... data_ref = 78cbd83c00000000, wstrb_t = 11110000, strb_pos=4, addr = 650a953c 
UVM_INFO axi_responder.sv(77) @ 1845: uvm_test_top.env.s_agent.responder [axi_responder] DATA at responder awsize = 2, addr = 650a953c, data = 78cbd83c00000000, strb = 11110000
UVM_INFO axi_responder.sv(88) @ 1845: uvm_test_top.env.s_agent.responder [axi_responder] Writing at addr = 650a953c, data = 78cbd83c00000000, strb = 11110000
UVM_INFO axi_drv.sv(111) @ 1855: uvm_test_top.env.m_agent.drv [DRV_DATA] ................... data_ref = 00000000edfa9df8, wstrb_t = 00001111, strb_pos=0, addr = 650a9540 
UVM_INFO axi_responder.sv(77) @ 1855: uvm_test_top.env.s_agent.responder [axi_responder] DATA at responder awsize = 2, addr = 650a9530, data = 00000000edfa9df8, strb = 00001111
UVM_INFO axi_responder.sv(88) @ 1855: uvm_test_top.env.s_agent.responder [axi_responder] Writing at addr = 650a9530, data = 00000000edfa9df8, strb = 00001111
UVM_INFO axi_sbd_byte.sv(23) @ 1875: uvm_test_top.env.sbd [axi_sbd]            0 Writing at addr = 650a9534, data = 0d08bf6000000000
UVM_INFO axi_sbd_byte.sv(23) @ 1875: uvm_test_top.env.sbd [axi_sbd]            1 Writing at addr = 650a9538, data = 00000000e3d65c42
UVM_INFO axi_sbd_byte.sv(23) @ 1875: uvm_test_top.env.sbd [axi_sbd]            2 Writing at addr = 650a953c, data = 78cbd83c00000000
UVM_INFO axi_sbd_byte.sv(23) @ 1875: uvm_test_top.env.sbd [axi_sbd]            3 Writing at addr = 650a9540, data = 00000000edfa9df8
UVM_INFO axi_drv.sv(47) @ 1885: uvm_test_top.env.m_agent.drv [axi_drv] Driving tx
UVM_INFO axi_responder.sv(57) @ 1895: uvm_test_top.env.s_agent.responder [AWSIZE_DEBUG] Captured awsize = 3, tx.burst_size = 3, vif.bursts_size = 3 from interface
UVM_INFO axi_tx.sv(90) @ 1895: reporter@@wr_tx [AXI_TX WRAP CALC]  addr = de00d7f8
UVM_INFO axi_tx.sv(91) @ 1895: reporter@@wr_tx [AXI_TX WRAP CALC]  wrap_lower_addr = de00d7c0 
UVM_INFO axi_tx.sv(92) @ 1895: reporter@@wr_tx [AXI_TX WRAP CALC]  wrap_upper_addr = de00d82f 
UVM_INFO axi_drv.sv(111) @ 1915: uvm_test_top.env.m_agent.drv [DRV_DATA] ................... data_ref = 1612a0bfb0bda4c6, wstrb_t = 11111111, strb_pos=0, addr = de00d7f8 
UVM_INFO axi_responder.sv(77) @ 1915: uvm_test_top.env.s_agent.responder [axi_responder] DATA at responder awsize = 3, addr = de00d7f8, data = 1612a0bfb0bda4c6, strb = 11111111
UVM_INFO axi_responder.sv(88) @ 1915: uvm_test_top.env.s_agent.responder [axi_responder] Writing at addr = de00d7f8, data = 1612a0bfb0bda4c6, strb = 11111111
UVM_INFO axi_drv.sv(111) @ 1925: uvm_test_top.env.m_agent.drv [DRV_DATA] ................... data_ref = 9dd821dd7a457570, wstrb_t = 11111111, strb_pos=0, addr = de00d800 
UVM_INFO axi_responder.sv(77) @ 1925: uvm_test_top.env.s_agent.responder [axi_responder] DATA at responder awsize = 3, addr = de00d800, data = 9dd821dd7a457570, strb = 11111111
UVM_INFO axi_responder.sv(88) @ 1925: uvm_test_top.env.s_agent.responder [axi_responder] Writing at addr = de00d800, data = 9dd821dd7a457570, strb = 11111111
UVM_INFO axi_drv.sv(111) @ 1935: uvm_test_top.env.m_agent.drv [DRV_DATA] ................... data_ref = 90716aab06b8dc82, wstrb_t = 11111111, strb_pos=0, addr = de00d808 
UVM_INFO axi_responder.sv(77) @ 1935: uvm_test_top.env.s_agent.responder [axi_responder] DATA at responder awsize = 3, addr = de00d808, data = 90716aab06b8dc82, strb = 11111111
UVM_INFO axi_responder.sv(88) @ 1935: uvm_test_top.env.s_agent.responder [axi_responder] Writing at addr = de00d808, data = 90716aab06b8dc82, strb = 11111111
UVM_INFO axi_drv.sv(111) @ 1945: uvm_test_top.env.m_agent.drv [DRV_DATA] ................... data_ref = 0e7b93a17783528f, wstrb_t = 11111111, strb_pos=0, addr = de00d810 
UVM_INFO axi_responder.sv(77) @ 1945: uvm_test_top.env.s_agent.responder [axi_responder] DATA at responder awsize = 3, addr = de00d810, data = 0e7b93a17783528f, strb = 11111111
UVM_INFO axi_responder.sv(88) @ 1945: uvm_test_top.env.s_agent.responder [axi_responder] Writing at addr = de00d810, data = 0e7b93a17783528f, strb = 11111111
UVM_INFO axi_drv.sv(111) @ 1955: uvm_test_top.env.m_agent.drv [DRV_DATA] ................... data_ref = e4f091a7d9609f7c, wstrb_t = 11111111, strb_pos=0, addr = de00d818 
UVM_INFO axi_responder.sv(77) @ 1955: uvm_test_top.env.s_agent.responder [axi_responder] DATA at responder awsize = 3, addr = de00d818, data = e4f091a7d9609f7c, strb = 11111111
UVM_INFO axi_responder.sv(88) @ 1955: uvm_test_top.env.s_agent.responder [axi_responder] Writing at addr = de00d818, data = e4f091a7d9609f7c, strb = 11111111
UVM_INFO axi_drv.sv(111) @ 1965: uvm_test_top.env.m_agent.drv [DRV_DATA] ................... data_ref = f580a7805bbabfe9, wstrb_t = 11111111, strb_pos=0, addr = de00d820 
UVM_INFO axi_responder.sv(77) @ 1965: uvm_test_top.env.s_agent.responder [axi_responder] DATA at responder awsize = 3, addr = de00d820, data = f580a7805bbabfe9, strb = 11111111
UVM_INFO axi_responder.sv(88) @ 1965: uvm_test_top.env.s_agent.responder [axi_responder] Writing at addr = de00d820, data = f580a7805bbabfe9, strb = 11111111
UVM_INFO axi_drv.sv(111) @ 1975: uvm_test_top.env.m_agent.drv [DRV_DATA] ................... data_ref = 79fe6d36f381fdc9, wstrb_t = 11111111, strb_pos=0, addr = de00d828 
UVM_INFO axi_responder.sv(77) @ 1975: uvm_test_top.env.s_agent.responder [axi_responder] DATA at responder awsize = 3, addr = de00d828, data = 79fe6d36f381fdc9, strb = 11111111
UVM_INFO axi_responder.sv(88) @ 1975: uvm_test_top.env.s_agent.responder [axi_responder] Writing at addr = de00d828, data = 79fe6d36f381fdc9, strb = 11111111
UVM_INFO axi_drv.sv(111) @ 1985: uvm_test_top.env.m_agent.drv [DRV_DATA] ................... data_ref = a4e44d1f37ba6b13, wstrb_t = 11111111, strb_pos=0, addr = de00d830 
UVM_INFO axi_responder.sv(77) @ 1985: uvm_test_top.env.s_agent.responder [axi_responder] DATA at responder awsize = 3, addr = de00d7c0, data = a4e44d1f37ba6b13, strb = 11111111
UVM_INFO axi_responder.sv(88) @ 1985: uvm_test_top.env.s_agent.responder [axi_responder] Writing at addr = de00d7c0, data = a4e44d1f37ba6b13, strb = 11111111
UVM_INFO axi_drv.sv(111) @ 1995: uvm_test_top.env.m_agent.drv [DRV_DATA] ................... data_ref = 23fd968b3d306f3a, wstrb_t = 11111111, strb_pos=0, addr = de00d838 
UVM_INFO axi_responder.sv(77) @ 1995: uvm_test_top.env.s_agent.responder [axi_responder] DATA at responder awsize = 3, addr = de00d7c8, data = 23fd968b3d306f3a, strb = 11111111
UVM_INFO axi_responder.sv(88) @ 1995: uvm_test_top.env.s_agent.responder [axi_responder] Writing at addr = de00d7c8, data = 23fd968b3d306f3a, strb = 11111111
UVM_INFO axi_drv.sv(111) @ 2005: uvm_test_top.env.m_agent.drv [DRV_DATA] ................... data_ref = 882b8a8dc8a7f56d, wstrb_t = 11111111, strb_pos=0, addr = de00d840 
UVM_INFO axi_responder.sv(77) @ 2005: uvm_test_top.env.s_agent.responder [axi_responder] DATA at responder awsize = 3, addr = de00d7d0, data = 882b8a8dc8a7f56d, strb = 11111111
UVM_INFO axi_responder.sv(88) @ 2005: uvm_test_top.env.s_agent.responder [axi_responder] Writing at addr = de00d7d0, data = 882b8a8dc8a7f56d, strb = 11111111
UVM_INFO axi_drv.sv(111) @ 2015: uvm_test_top.env.m_agent.drv [DRV_DATA] ................... data_ref = 005bbc1adc8b2352, wstrb_t = 11111111, strb_pos=0, addr = de00d848 
UVM_INFO axi_responder.sv(77) @ 2015: uvm_test_top.env.s_agent.responder [axi_responder] DATA at responder awsize = 3, addr = de00d7d8, data = 005bbc1adc8b2352, strb = 11111111
UVM_INFO axi_responder.sv(88) @ 2015: uvm_test_top.env.s_agent.responder [axi_responder] Writing at addr = de00d7d8, data = 005bbc1adc8b2352, strb = 11111111
UVM_INFO axi_drv.sv(111) @ 2025: uvm_test_top.env.m_agent.drv [DRV_DATA] ................... data_ref = b37a31a88d66e7c9, wstrb_t = 11111111, strb_pos=0, addr = de00d850 
UVM_INFO axi_responder.sv(77) @ 2025: uvm_test_top.env.s_agent.responder [axi_responder] DATA at responder awsize = 3, addr = de00d7e0, data = b37a31a88d66e7c9, strb = 11111111
UVM_INFO axi_responder.sv(88) @ 2025: uvm_test_top.env.s_agent.responder [axi_responder] Writing at addr = de00d7e0, data = b37a31a88d66e7c9, strb = 11111111
UVM_INFO axi_drv.sv(111) @ 2035: uvm_test_top.env.m_agent.drv [DRV_DATA] ................... data_ref = d4920767fc5183c0, wstrb_t = 11111111, strb_pos=0, addr = de00d858 
UVM_INFO axi_responder.sv(77) @ 2035: uvm_test_top.env.s_agent.responder [axi_responder] DATA at responder awsize = 3, addr = de00d7e8, data = d4920767fc5183c0, strb = 11111111
UVM_INFO axi_responder.sv(88) @ 2035: uvm_test_top.env.s_agent.responder [axi_responder] Writing at addr = de00d7e8, data = d4920767fc5183c0, strb = 11111111
UVM_INFO axi_drv.sv(111) @ 2045: uvm_test_top.env.m_agent.drv [DRV_DATA] ................... data_ref = b450773f61c95980, wstrb_t = 11111111, strb_pos=0, addr = de00d860 
UVM_INFO axi_responder.sv(77) @ 2045: uvm_test_top.env.s_agent.responder [axi_responder] DATA at responder awsize = 3, addr = de00d7f0, data = b450773f61c95980, strb = 11111111
UVM_INFO axi_responder.sv(88) @ 2045: uvm_test_top.env.s_agent.responder [axi_responder] Writing at addr = de00d7f0, data = b450773f61c95980, strb = 11111111
UVM_INFO axi_sbd_byte.sv(23) @ 2065: uvm_test_top.env.sbd [axi_sbd]            0 Writing at addr = de00d7f8, data = 1612a0bfb0bda4c6
UVM_INFO axi_sbd_byte.sv(23) @ 2065: uvm_test_top.env.sbd [axi_sbd]            1 Writing at addr = de00d800, data = 9dd821dd7a457570
UVM_INFO axi_sbd_byte.sv(23) @ 2065: uvm_test_top.env.sbd [axi_sbd]            2 Writing at addr = de00d808, data = 90716aab06b8dc82
UVM_INFO axi_sbd_byte.sv(23) @ 2065: uvm_test_top.env.sbd [axi_sbd]            3 Writing at addr = de00d810, data = 0e7b93a17783528f
UVM_INFO axi_sbd_byte.sv(23) @ 2065: uvm_test_top.env.sbd [axi_sbd]            4 Writing at addr = de00d818, data = e4f091a7d9609f7c
UVM_INFO axi_sbd_byte.sv(23) @ 2065: uvm_test_top.env.sbd [axi_sbd]            5 Writing at addr = de00d820, data = f580a7805bbabfe9
UVM_INFO axi_sbd_byte.sv(23) @ 2065: uvm_test_top.env.sbd [axi_sbd]            6 Writing at addr = de00d828, data = 79fe6d36f381fdc9
UVM_INFO axi_sbd_byte.sv(23) @ 2065: uvm_test_top.env.sbd [axi_sbd]            7 Writing at addr = de00d830, data = a4e44d1f37ba6b13
UVM_INFO axi_sbd_byte.sv(23) @ 2065: uvm_test_top.env.sbd [axi_sbd]            8 Writing at addr = de00d838, data = 23fd968b3d306f3a
UVM_INFO axi_sbd_byte.sv(23) @ 2065: uvm_test_top.env.sbd [axi_sbd]            9 Writing at addr = de00d840, data = 882b8a8dc8a7f56d
UVM_INFO axi_sbd_byte.sv(23) @ 2065: uvm_test_top.env.sbd [axi_sbd]           10 Writing at addr = de00d848, data = 005bbc1adc8b2352
UVM_INFO axi_sbd_byte.sv(23) @ 2065: uvm_test_top.env.sbd [axi_sbd]           11 Writing at addr = de00d850, data = b37a31a88d66e7c9
UVM_INFO axi_sbd_byte.sv(23) @ 2065: uvm_test_top.env.sbd [axi_sbd]           12 Writing at addr = de00d858, data = d4920767fc5183c0
UVM_INFO axi_sbd_byte.sv(23) @ 2065: uvm_test_top.env.sbd [axi_sbd]           13 Writing at addr = de00d860, data = b450773f61c95980
UVM_INFO axi_drv.sv(47) @ 2075: uvm_test_top.env.m_agent.drv [axi_drv] Driving tx
UVM_INFO axi_responder.sv(57) @ 2085: uvm_test_top.env.s_agent.responder [AWSIZE_DEBUG] Captured awsize = 3, tx.burst_size = 3, vif.bursts_size = 3 from interface
UVM_INFO axi_tx.sv(90) @ 2085: reporter@@wr_tx [AXI_TX WRAP CALC]  addr = 7eb50958
UVM_INFO axi_tx.sv(91) @ 2085: reporter@@wr_tx [AXI_TX WRAP CALC]  wrap_lower_addr = 7eb50958 
UVM_INFO axi_tx.sv(92) @ 2085: reporter@@wr_tx [AXI_TX WRAP CALC]  wrap_upper_addr = 7eb5095f 
UVM_INFO axi_drv.sv(111) @ 2105: uvm_test_top.env.m_agent.drv [DRV_DATA] ................... data_ref = 91597d6e0b6d4593, wstrb_t = 11111111, strb_pos=0, addr = 7eb50958 
UVM_INFO axi_responder.sv(77) @ 2105: uvm_test_top.env.s_agent.responder [axi_responder] DATA at responder awsize = 3, addr = 7eb50958, data = 91597d6e0b6d4593, strb = 11111111
UVM_INFO axi_responder.sv(88) @ 2105: uvm_test_top.env.s_agent.responder [axi_responder] Writing at addr = 7eb50958, data = 91597d6e0b6d4593, strb = 11111111
UVM_INFO axi_sbd_byte.sv(23) @ 2125: uvm_test_top.env.sbd [axi_sbd]            0 Writing at addr = 7eb50958, data = 91597d6e0b6d4593
UVM_INFO axi_drv.sv(47) @ 2135: uvm_test_top.env.m_agent.drv [axi_drv] Driving tx
UVM_INFO axi_responder.sv(57) @ 2145: uvm_test_top.env.s_agent.responder [AWSIZE_DEBUG] Captured awsize = 0, tx.burst_size = 0, vif.bursts_size = 0 from interface
UVM_INFO axi_tx.sv(90) @ 2145: reporter@@wr_tx [AXI_TX WRAP CALC]  addr = eb431ecd
UVM_INFO axi_tx.sv(91) @ 2145: reporter@@wr_tx [AXI_TX WRAP CALC]  wrap_lower_addr = eb431ec0 
UVM_INFO axi_tx.sv(92) @ 2145: reporter@@wr_tx [AXI_TX WRAP CALC]  wrap_upper_addr = eb431ecf 
UVM_INFO axi_drv.sv(111) @ 2165: uvm_test_top.env.m_agent.drv [DRV_DATA] ................... data_ref = 0000b00000000000, wstrb_t = 00100000, strb_pos=5, addr = eb431ecd 
UVM_INFO axi_responder.sv(77) @ 2165: uvm_test_top.env.s_agent.responder [axi_responder] DATA at responder awsize = 0, addr = eb431ecd, data = 0000b00000000000, strb = 00100000
UVM_INFO axi_responder.sv(88) @ 2165: uvm_test_top.env.s_agent.responder [axi_responder] Writing at addr = eb431ecd, data = 0000b00000000000, strb = 00100000
UVM_INFO axi_drv.sv(111) @ 2175: uvm_test_top.env.m_agent.drv [DRV_DATA] ................... data_ref = 00cf000000000000, wstrb_t = 01000000, strb_pos=6, addr = eb431ece 
UVM_INFO axi_responder.sv(77) @ 2175: uvm_test_top.env.s_agent.responder [axi_responder] DATA at responder awsize = 0, addr = eb431ece, data = 00cf000000000000, strb = 01000000
UVM_INFO axi_responder.sv(88) @ 2175: uvm_test_top.env.s_agent.responder [axi_responder] Writing at addr = eb431ece, data = 00cf000000000000, strb = 01000000
UVM_INFO axi_drv.sv(111) @ 2185: uvm_test_top.env.m_agent.drv [DRV_DATA] ................... data_ref = b000000000000000, wstrb_t = 10000000, strb_pos=7, addr = eb431ecf 
UVM_INFO axi_responder.sv(77) @ 2185: uvm_test_top.env.s_agent.responder [axi_responder] DATA at responder awsize = 0, addr = eb431ec0, data = b000000000000000, strb = 10000000
UVM_INFO axi_responder.sv(88) @ 2185: uvm_test_top.env.s_agent.responder [axi_responder] Writing at addr = eb431ec0, data = b000000000000000, strb = 10000000
UVM_INFO axi_drv.sv(111) @ 2195: uvm_test_top.env.m_agent.drv [DRV_DATA] ................... data_ref = 000000000000000f, wstrb_t = 00000001, strb_pos=0, addr = eb431ed0 
UVM_INFO axi_responder.sv(77) @ 2195: uvm_test_top.env.s_agent.responder [axi_responder] DATA at responder awsize = 0, addr = eb431ec1, data = 000000000000000f, strb = 00000001
UVM_INFO axi_responder.sv(88) @ 2195: uvm_test_top.env.s_agent.responder [axi_responder] Writing at addr = eb431ec1, data = 000000000000000f, strb = 00000001
UVM_INFO axi_drv.sv(111) @ 2205: uvm_test_top.env.m_agent.drv [DRV_DATA] ................... data_ref = 000000000000f000, wstrb_t = 00000010, strb_pos=1, addr = eb431ed1 
UVM_INFO axi_responder.sv(77) @ 2205: uvm_test_top.env.s_agent.responder [axi_responder] DATA at responder awsize = 0, addr = eb431ec2, data = 000000000000f000, strb = 00000010
UVM_INFO axi_responder.sv(88) @ 2205: uvm_test_top.env.s_agent.responder [axi_responder] Writing at addr = eb431ec2, data = 000000000000f000, strb = 00000010
UVM_INFO axi_drv.sv(111) @ 2215: uvm_test_top.env.m_agent.drv [DRV_DATA] ................... data_ref = 00000000006b0000, wstrb_t = 00000100, strb_pos=2, addr = eb431ed2 
UVM_INFO axi_responder.sv(77) @ 2215: uvm_test_top.env.s_agent.responder [axi_responder] DATA at responder awsize = 0, addr = eb431ec3, data = 00000000006b0000, strb = 00000100
UVM_INFO axi_responder.sv(88) @ 2215: uvm_test_top.env.s_agent.responder [axi_responder] Writing at addr = eb431ec3, data = 00000000006b0000, strb = 00000100
